(1754536961.134125) can0 1FF#380C010002000200
(1754536961.134126) can0 2FF#0100020001000200
(1754536961.136409) can0 3FF#0100010000000200
(1754536961.234186) can0 1FF#F80A020002000200
(1754536961.234188) can0 2FF#0200020001000100
(1754536961.235182) can0 3FF#0100010000000200
(1754536961.334190) can0 1FF#F40B020002000200
(1754536961.334192) can0 2FF#0200020001000100
(1754536961.336123) can0 3FF#0100010000000100
(1754536961.434123) can0 1FF#610B020002000200
(1754536961.434124) can0 2FF#0100020001000200
(1754536961.436102) can0 3FF#0200010000000200
(1754536961.534130) can0 1FF#8D0C020002000200
(1754536961.534131) can0 2FF#0100020002000200
(1754536961.536044) can0 3FF#0200010000000200
(1754536961.634141) can0 1FF#FD0A010002000200
(1754536961.634142) can0 2FF#0100020001000200
(1754536961.636045) can0 3FF#0100010000000100
(1754536961.734170) can0 1FF#100C010001000300
(1754536961.734171) can0 2FF#0200020001000200
(1754536961.736055) can0 3FF#0200010000000100
(1754536961.834133) can0 1FF#640B010001000200
(1754536961.834135) can0 2FF#0200010001000200
(1754536961.836019) can0 3FF#0200010000000100
(1754536961.934244) can0 1FF#470C010001000200
(1754536961.934245) can0 2FF#0100020001000200
(1754536961.936053) can0 3FF#0100010000000100
(1754536962.034249) can0 1FF#EC0A020001000200
(1754536962.034250) can0 2FF#0200010001000200
(1754536962.036026) can0 3FF#0200010000000200
(1754536962.134145) can0 1FF#590C020002000200
(1754536962.134147) can0 2FF#0100020001000200
(1754536962.136056) can0 3FF#0200010000000200
(1754536962.234113) can0 1FF#BE0B020001000200
(1754536962.234115) can0 2FF#0100020001000200
(1754536962.235156) can0 3FF#0200010000000100
(1754536962.334115) can0 1FF#A10C020002000200
(1754536962.334116) can0 2FF#0200020001000200
(1754536962.336021) can0 3FF#0200010000000200
(1754536962.434064) can0 1FF#0A0B010002000200
(1754536962.434066) can0 2FF#0100020001000200
(1754536962.436030) can0 3FF#0100010000000100
(1754536962.534117) can0 1FF#F20B020002000200
(1754536962.534118) can0 2FF#0100020001000200
(1754536962.536022) can0 3FF#0100010000000100
(1754536962.634088) can0 1FF#A60B010002000200
(1754536962.634090) can0 2FF#0100020001000200
(1754536962.636025) can0 3FF#0100010000000100
(1754536962.734097) can0 1FF#C30C010002000200
(1754536962.734099) can0 2FF#0100020001000200
(1754536962.736027) can0 3FF#0100010000000100
(1754536962.834095) can0 1FF#210B020002000100
(1754536962.834096) can0 2FF#0100020001000200
(1754536962.836025) can0 3FF#0100010000000100
(1754536962.934090) can0 1FF#5B0C020001000200
(1754536962.934092) can0 2FF#0200010001000200
(1754536962.936002) can0 3FF#0200010000000200
(1754536963.034094) can0 1FF#BB0B010001000300
(1754536963.034096) can0 2FF#0300010000000100
(1754536963.036004) can0 3FF#0200010000000200
(1754536963.134112) can0 1FF#830C010001000200
(1754536963.134114) can0 2FF#0200020001000200
(1754536963.136027) can0 3FF#0100020000000100
(1754536963.234117) can0 1FF#4F0B010002000200
(1754536963.234119) can0 2FF#0200020001000200
(1754536963.235150) can0 3FF#0100010000000100
(1754536963.334133) can0 1FF#620C020002000200
(1754536963.334134) can0 2FF#0100020002000200
(1754536963.336081) can0 3FF#0100000000000100
(1754536963.434116) can0 1FF#950B020001000200
(1754536963.434117) can0 2FF#0200020001000200
(1754536963.436029) can0 3FF#0200010000000200
(1754536963.534145) can0 1FF#FF0C010002000200
(1754536963.534146) can0 2FF#0200010001000100
(1754536963.536057) can0 3FF#0200010000000200
(1754536963.634071) can0 1FF#7B0B020002000100
(1754536963.634073) can0 2FF#0100020001000200
(1754536963.636006) can0 3FF#0100010000000100
(1754536963.734101) can0 1FF#F40C010001000200
(1754536963.734103) can0 2FF#0100020001000200
(1754536963.736009) can0 3FF#0100010000000100
(1754536963.834081) can0 1FF#E30B020001000200
(1754536963.834082) can0 2FF#0200020002000200
(1754536963.835988) can0 3FF#0100010000000100
(1754536963.934104) can0 1FF#DF0C010001000200
(1754536963.934106) can0 2FF#0200020001000200
(1754536963.936011) can0 3FF#0200010000000200
(1754536964.033962) can0 1FF#6C0B010001000200
(1754536964.033964) can0 2FF#0100020001000200
(1754536964.035984) can0 3FF#0100010000000100
(1754536964.134031) can0 1FF#B30C010001000200
(1754536964.134032) can0 2FF#0200020001000200
(1754536964.135986) can0 3FF#0100010000000200
(1754536964.234053) can0 1FF#020C010001000200
(1754536964.234055) can0 2FF#0200020001000100
(1754536964.235149) can0 3FF#0100010000000200
(1754536964.334197) can0 1FF#350D020002000200
(1754536964.334199) can0 2FF#0200020001000200
(1754536964.335992) can0 3FF#0100010000000100
(1754536964.434079) can0 1FF#9D0B020002000200
(1754536964.434081) can0 2FF#0100020001000200
(1754536964.435984) can0 3FF#0200010000000100
(1754536964.534072) can0 1FF#EC0C010001000200
(1754536964.534074) can0 2FF#0100010001000200
(1754536964.535985) can0 3FF#0100010000000100
(1754536964.634046) can0 1FF#530C010002000200
(1754536964.634048) can0 2FF#0100020001000200
(1754536964.635988) can0 3FF#0100010000000100
(1754536964.734086) can0 1FF#240D010001000200
(1754536964.734087) can0 2FF#0200010001000200
(1754536964.736000) can0 3FF#0200010000000200
(1754536964.834070) can0 1FF#D60B010001000200
(1754536964.834072) can0 2FF#0200020001000200
(1754536964.835963) can0 3FF#0200010000000100
(1754536964.934057) can0 1FF#620C010001000200
(1754536964.934060) can0 2FF#0200020001000200
(1754536964.935959) can0 3FF#0100020000000100
(1754536965.034078) can0 1FF#0D0C020002000200
(1754536965.034080) can0 2FF#0100020001000200
(1754536965.035988) can0 3FF#0100010000000100
(1754536965.134038) can0 1FF#EE0C010001000300
(1754536965.134039) can0 2FF#0200010001000200
(1754536965.135968) can0 3FF#0100020000000200
(1754536965.234006) can0 1FF#E50B010001000200
(1754536965.234007) can0 2FF#0100020002000200
(1754536965.235136) can0 3FF#0100010000000100
(1754536965.334064) can0 1FF#F90C010001000300
(1754536965.334065) can0 2FF#0200010001000200
(1754536965.336018) can0 3FF#0200010000000200
(1754536965.434099) can0 1FF#3E0C010002000200
(1754536965.434101) can0 2FF#0200020001000200
(1754536965.436043) can0 3FF#0100010000000100
(1754536965.534071) can0 1FF#D50C010001000300
(1754536965.534073) can0 2FF#0200010001000200
(1754536965.535989) can0 3FF#0100020000000200
(1754536965.634031) can0 1FF#F90B010002000300
(1754536965.634032) can0 2FF#0200010001000200
(1754536965.635935) can0 3FF#0100020000000100
(1754536965.734026) can0 1FF#CD0C010001000300
(1754536965.734027) can0 2FF#0200010001000100
(1754536965.735957) can0 3FF#0200010000000200
(1754536965.834042) can0 1FF#AC0C020002000200
(1754536965.834043) can0 2FF#0200010001000100
(1754536965.835960) can0 3FF#0200000000000200
(1754536965.934016) can0 1FF#840C010001000200
(1754536965.934017) can0 2FF#0200010001000200
(1754536965.935938) can0 3FF#0200010000000100
(1754536966.034024) can0 1FF#710C000002000200
(1754536966.034026) can0 2FF#0200020001000200
(1754536966.035938) can0 3FF#0100010000000100
(1754536966.134034) can0 1FF#860C020001000200
(1754536966.134035) can0 2FF#0200020001000200
(1754536966.135937) can0 3FF#0100010000000100
(1754536966.234032) can0 1FF#FF0C010002000200
(1754536966.234033) can0 2FF#0200010001000200
(1754536966.235147) can0 3FF#0100010000000200
(1754536966.334027) can0 1FF#240C010001000200
(1754536966.334028) can0 2FF#0200010001000200
(1754536966.335943) can0 3FF#0100010000000100
(1754536966.434026) can0 1FF#B10C010001000200
(1754536966.434027) can0 2FF#0200010001000200
(1754536966.435936) can0 3FF#0100010000000100
(1754536966.533983) can0 1FF#690C020002000200
(1754536966.533984) can0 2FF#0100010001000200
(1754536966.535936) can0 3FF#0200010000000200
(1754536966.633974) can0 1FF#800D010001000200
(1754536966.633975) can0 2FF#0200020001000200
(1754536966.635942) can0 3FF#0100010000000100
(1754536966.733990) can0 1FF#D20B020001000200
(1754536966.733991) can0 2FF#0200010000000100
(1754536966.735933) can0 3FF#0200010000000200
(1754536966.834027) can0 1FF#1E0D010002000200
(1754536966.834028) can0 2FF#0200010001000200
(1754536966.835933) can0 3FF#0100010000000200
(1754536966.934004) can0 1FF#110C010001000200
(1754536966.934005) can0 2FF#0200020001000100
(1754536966.935946) can0 3FF#0100010000000200
(1754536967.034011) can0 1FF#4A0D010001000300
(1754536967.034012) can0 2FF#0200010001000200
(1754536967.035920) can0 3FF#0200010000000200
(1754536967.134040) can0 1FF#F50B010001000200
(1754536967.134041) can0 2FF#0200020001000200
(1754536967.135944) can0 3FF#0100010000000100
(1754536967.234031) can0 1FF#6C0D010001000200
(1754536967.234033) can0 2FF#0200010001000200
(1754536967.235133) can0 3FF#0200010000000200
(1754536967.334041) can0 1FF#750C010001000200
(1754536967.334043) can0 2FF#0100020001000200
(1754536967.335977) can0 3FF#0100010000000100
(1754536967.434040) can0 1FF#C40D020001000200
(1754536967.434041) can0 2FF#0100020001000200
(1754536967.435974) can0 3FF#0100010000000100
(1754536967.534043) can0 1FF#DC0B020002000200
(1754536967.534045) can0 2FF#0100020001000200
(1754536967.535977) can0 3FF#0100010000000200
(1754536967.634007) can0 1FF#720D020002000200
(1754536967.634009) can0 2FF#0100020001000200
(1754536967.635951) can0 3FF#0200010000000200
(1754536967.733981) can0 1FF#DB0C010001000200
(1754536967.733982) can0 2FF#0200020001000200
(1754536967.735900) can0 3FF#0200010000000200
(1754536967.833972) can0 1FF#910D010001000200
(1754536967.833974) can0 2FF#0100010001000100
(1754536967.835924) can0 3FF#0200010000000200
(1754536967.934020) can0 1FF#0D0C010001000200
(1754536967.934022) can0 2FF#0200020001000100
(1754536967.935930) can0 3FF#0200010000000200
(1754536968.033987) can0 1FF#6E0D020002000200
(1754536968.033989) can0 2FF#0100020001000200
(1754536968.035910) can0 3FF#0100010000000100
(1754536968.133995) can0 1FF#990C010001000200
(1754536968.133997) can0 2FF#0200020001000200
(1754536968.135898) can0 3FF#0100010000000200
(1754536968.233967) can0 1FF#E40D020001000200
(1754536968.233969) can0 2FF#0200020001000200
(1754536968.235051) can0 3FF#0100010000000100
(1754536968.333986) can0 1FF#FE0B010002000200
(1754536968.333988) can0 2FF#0100020001000300
(1754536968.335899) can0 3FF#0100010000000100
(1754536968.433992) can0 1FF#920D010001000200
(1754536968.433994) can0 2FF#0200010001000100
(1754536968.435943) can0 3FF#0200010000000200
(1754536968.533970) can0 1FF#300C020001000200
(1754536968.533971) can0 2FF#0200020001000100
(1754536968.535926) can0 3FF#0100010000000200
(1754536968.633980) can0 1FF#B20D020002000200
(1754536968.633981) can0 2FF#0200020001000100
(1754536968.635897) can0 3FF#0100010000000100
(1754536968.733966) can0 1FF#EE0B020001000200
(1754536968.733969) can0 2FF#0100020001000200
(1754536968.735874) can0 3FF#0200000000000100
(1754536968.833936) can0 1FF#7B0D020001000200
(1754536968.833938) can0 2FF#0100020002000200
(1754536968.835866) can0 3FF#0100010000000100
(1754536968.933964) can0 1FF#BA0C010001000300
(1754536968.933966) can0 2FF#0200010001000200
(1754536968.935876) can0 3FF#0100010000000200
(1754536969.033972) can0 1FF#D30D020002000200
(1754536969.033973) can0 2FF#0200020001000200
(1754536969.035878) can0 3FF#0200000000000200
(1754536969.134001) can0 1FF#320C020002000200
(1754536969.134002) can0 2FF#0200020001000100
(1754536969.135878) can0 3FF#0200010000000200
(1754536969.234001) can0 1FF#8C0D010001000300
(1754536969.234003) can0 2FF#0100020001000200
(1754536969.235117) can0 3FF#0100010000000100
(1754536969.333951) can0 1FF#C80C010002000200
(1754536969.333953) can0 2FF#0100030002000300
(1754536969.335912) can0 3FF#0100010000000100
(1754536969.434010) can0 1FF#A30D010001000200
(1754536969.434011) can0 2FF#0200020001000200
(1754536969.435901) can0 3FF#0100010000000200
(1754536969.533994) can0 1FF#270C010001000200
(1754536969.533995) can0 2FF#0200010001000200
(1754536969.535927) can0 3FF#0100010000000200
(1754536969.633962) can0 1FF#880D010001000200
(1754536969.633963) can0 2FF#0200020001000200
(1754536969.635898) can0 3FF#0100010000000200
(1754536969.733945) can0 1FF#D30C010001000200
(1754536969.733946) can0 2FF#0200020001000200
(1754536969.735858) can0 3FF#0100010000000100
(1754536969.833970) can0 1FF#3C0D010002000200
(1754536969.833972) can0 2FF#0100020001000200
(1754536969.835883) can0 3FF#0100010000000100
(1754536969.933970) can0 1FF#260C010002000300
(1754536969.933972) can0 2FF#0200020001000200
(1754536969.935883) can0 3FF#0100010000000100
(1754536970.033939) can0 1FF#C90D010002000200
(1754536970.033941) can0 2FF#0200020001000200
(1754536970.035854) can0 3FF#0200010000000200
(1754536970.133945) can0 1FF#E40C010001000200
(1754536970.133946) can0 2FF#0200010001000200
(1754536970.135846) can0 3FF#0100010000000200
(1754536970.233919) can0 1FF#6B0D010002000200
(1754536970.233920) can0 2FF#0200020001000100
(1754536970.235088) can0 3FF#0200010000000100
(1754536970.333921) can0 1FF#4E0C010001000200
(1754536970.333923) can0 2FF#0200020001000100
(1754536970.335855) can0 3FF#0200010000000200
(1754536970.433913) can0 1FF#9F0D010001000200
(1754536970.433915) can0 2FF#0200020001000200
(1754536970.435855) can0 3FF#0100010000000100
(1754536970.533914) can0 1FF#D30C010001000200
(1754536970.533916) can0 2FF#0200010001000200
(1754536970.535826) can0 3FF#0100010000000200
(1754536970.633914) can0 1FF#530D020001000200
(1754536970.633915) can0 2FF#0200010001000200
(1754536970.635834) can0 3FF#0100010000000200
(1754536970.733945) can0 1FF#520C020002000200
(1754536970.733948) can0 2FF#0100020001000200
(1754536970.735885) can0 3FF#0100010000000100
(1754536970.834018) can0 1FF#5B0D010002000200
(1754536970.834020) can0 2FF#0100020001000300
(1754536970.835836) can0 3FF#0100010000000100
(1754536970.933917) can0 1FF#230D010001000300
(1754536970.933918) can0 2FF#0300010001000100
(1754536970.935871) can0 3FF#0200010000000200
(1754536971.033919) can0 1FF#6A0D010001000200
(1754536971.033920) can0 2FF#0200020001000200
(1754536971.035845) can0 3FF#0100020000000100
(1754536971.133893) can0 1FF#690C010002000200
(1754536971.133895) can0 2FF#0100020001000200
(1754536971.135836) can0 3FF#0100010000000100
(1754536971.233927) can0 1FF#AA0D020002000200
(1754536971.233929) can0 2FF#0200010001000100
(1754536971.235102) can0 3FF#0200010000000100
(1754536971.333958) can0 1FF#090D020001000200
(1754536971.333960) can0 2FF#0200020001000200
(1754536971.335863) can0 3FF#0200010000000200
(1754536971.433947) can0 1FF#760D010001000300
(1754536971.433949) can0 2FF#0100020001000200
(1754536971.435881) can0 3FF#0100010000000100
(1754536971.533959) can0 1FF#AC0C010001000300
(1754536971.533961) can0 2FF#0200010001000200
(1754536971.535864) can0 3FF#0100020000000200
(1754536971.633945) can0 1FF#AD0D010002000200
(1754536971.633946) can0 2FF#0200010001000100
(1754536971.635859) can0 3FF#0200010000000100
(1754536971.733899) can0 1FF#BA0C020001000200
(1754536971.733901) can0 2FF#0100020001000200
(1754536971.735831) can0 3FF#0100010000000100
(1754536971.833892) can0 1FF#7A0D010001000200
(1754536971.833893) can0 2FF#0200010001000100
(1754536971.835832) can0 3FF#0200010000000200
(1754536971.933903) can0 1FF#5D0C020002000200
(1754536971.933905) can0 2FF#0200010001000200
(1754536971.935812) can0 3FF#0200010000000200
(1754536972.033873) can0 1FF#D50D020001000200
(1754536972.033875) can0 2FF#0200010001000200
(1754536972.035786) can0 3FF#0200010000000100
(1754536972.133901) can0 1FF#EF0C010002000200
(1754536972.133903) can0 2FF#0100020001000200
(1754536972.135811) can0 3FF#0100010000000100
(1754536972.233904) can0 1FF#A50D010002000200
(1754536972.233905) can0 2FF#0100020001000200
(1754536972.235114) can0 3FF#0100010000000100
(1754536972.333907) can0 1FF#CB0C010001000300
(1754536972.333909) can0 2FF#0200020001000200
(1754536972.335816) can0 3FF#0100010000000100
(1754536972.433904) can0 1FF#F50D010001000200
(1754536972.433906) can0 2FF#0200020001000200
(1754536972.435821) can0 3FF#0100010000000100
(1754536972.533879) can0 1FF#170D010001000200
(1754536972.533880) can0 2FF#0100020001000200
(1754536972.535821) can0 3FF#0100010000000100
(1754536972.633890) can0 1FF#900D020001000300
(1754536972.633891) can0 2FF#0200020001000200
(1754536972.635816) can0 3FF#0100010000000100
(1754536972.733849) can0 1FF#340C010001000200
(1754536972.733851) can0 2FF#0200010001000100
(1754536972.735851) can0 3FF#0200010000000200
(1754536972.833883) can0 1FF#EC0D020002000200
(1754536972.833884) can0 2FF#0200020001000100
(1754536972.835814) can0 3FF#0100010000000100
(1754536972.933885) can0 1FF#C60C010002000200
(1754536972.933887) can0 2FF#0100020001000200
(1754536972.935801) can0 3FF#0100010000000100
(1754536973.033877) can0 1FF#930D010001000300
(1754536973.033879) can0 2FF#0300010001000200
(1754536973.035831) can0 3FF#0200010000000200
(1754536973.133731) can0 1FF#7F0C020002000200
(1754536973.133733) can0 2FF#0200020001000100
(1754536973.135821) can0 3FF#0200010000000100
(1754536973.233881) can0 1FF#E80D020001000200
(1754536973.233882) can0 2FF#0200010001000200
(1754536973.235082) can0 3FF#0200010000000200
(1754536973.333879) can0 1FF#C30C010001000200
(1754536973.333881) can0 2FF#0200020001000200
(1754536973.335833) can0 3FF#0100010000000200
(1754536973.433925) can0 1FF#3F0D010002000200
(1754536973.433927) can0 2FF#0200020001000200
(1754536973.435844) can0 3FF#0100010000000200
(1754536973.533909) can0 1FF#5C0C010002000200
(1754536973.533910) can0 2FF#0200020001000100
(1754536973.535856) can0 3FF#0100010000000200
(1754536973.633908) can0 1FF#0A0E010001000200
(1754536973.633910) can0 2FF#0200020001000100
(1754536973.635844) can0 3FF#0200010000000200
(1754536973.734014) can0 1FF#A20C010001000200
(1754536973.734016) can0 2FF#0200010001000100
(1754536973.735796) can0 3FF#0200010000000200
(1754536973.833863) can0 1FF#D10C010001000200
(1754536973.833864) can0 2FF#0100020001000200
(1754536973.835774) can0 3FF#0100010000000100
(1754536973.933856) can0 1FF#900C010002000200
(1754536973.933857) can0 2FF#0200020001000200
(1754536973.935772) can0 3FF#0100010000000100
(1754536974.033995) can0 1FF#930D010001000200
(1754536974.033996) can0 2FF#0200020001000200
(1754536974.035750) can0 3FF#0100010000000100
(1754536974.133863) can0 1FF#9C0C010001000200
(1754536974.133864) can0 2FF#0200020001000200
(1754536974.135767) can0 3FF#0200010000000200
(1754536974.233828) can0 1FF#E70C010002000300
(1754536974.233830) can0 2FF#0200020001000200
(1754536974.235027) can0 3FF#0200010000000200
(1754536974.333836) can0 1FF#910C010001000200
(1754536974.333838) can0 2FF#0200020001000200
(1754536974.335745) can0 3FF#0200010000000200
(1754536974.434011) can0 1FF#B80D010002000200
(1754536974.434012) can0 2FF#0200020001000100
(1754536974.435808) can0 3FF#0100010000000100
(1754536974.533834) can0 1FF#9B0C010001000200
(1754536974.533836) can0 2FF#0100020001000200
(1754536974.535776) can0 3FF#0100010000000100
(1754536974.633818) can0 1FF#D80C010001000200
(1754536974.633820) can0 2FF#0200020001000100
(1754536974.635776) can0 3FF#0200010000000200
(1754536974.733842) can0 1FF#150D010001000200
(1754536974.733844) can0 2FF#0100020001000200
(1754536974.735779) can0 3FF#0100010000000100
(1754536974.833840) can0 1FF#560D020002000100
(1754536974.833842) can0 2FF#0100020001000200
(1754536974.835770) can0 3FF#0100010000000200
(1754536974.933843) can0 1FF#700D020002000200
(1754536974.933844) can0 2FF#0100020001000100
(1754536974.935785) can0 3FF#0100010000000100
(1754536975.033843) can0 1FF#9F0C020002000200
(1754536975.033845) can0 2FF#0100020002000300
(1754536975.035773) can0 3FF#0100010000000100
(1754536975.133959) can0 1FF#9F0D010002000200
(1754536975.133961) can0 2FF#0100020001000200
(1754536975.135757) can0 3FF#0200010000000100
(1754536975.233874) can0 1FF#250D020002000200
(1754536975.233876) can0 2FF#0100020001000200
(1754536975.235064) can0 3FF#0100010000000100
(1754536975.333868) can0 1FF#930D010002000300
(1754536975.333869) can0 2FF#0200020001000200
(1754536975.335782) can0 3FF#0200010000000100
(1754536975.433853) can0 1FF#340C010001000200
(1754536975.433855) can0 2FF#0200010001000200
(1754536975.435783) can0 3FF#0200010000000200
(1754536975.533698) can0 1FF#350E010001000200
(1754536975.533700) can0 2FF#0200020001000200
(1754536975.535795) can0 3FF#0100010000000100
(1754536975.633819) can0 1FF#D50C010001000200
(1754536975.633820) can0 2FF#0200020001000200
(1754536975.635728) can0 3FF#0100010000000100
(1754536975.733810) can0 1FF#8E0D020002000200
(1754536975.733812) can0 2FF#0100020001000200
(1754536975.735756) can0 3FF#0100010000000100
(1754536975.833960) can0 1FF#8E0C020001000200
(1754536975.833962) can0 2FF#0200020002000200
(1754536975.835738) can0 3FF#0100010000000200
(1754536975.933795) can0 1FF#780E010001000300
(1754536975.933797) can0 2FF#0200020001000200
(1754536975.935730) can0 3FF#0100010000000200
(1754536976.033754) can0 1FF#B20C010001000200
(1754536976.033755) can0 2FF#0200010001000100
(1754536976.035747) can0 3FF#0100010000000200
(1754536976.133829) can0 1FF#1B0D020002000200
(1754536976.133831) can0 2FF#0200020001000200
(1754536976.135732) can0 3FF#0200010000000100
(1754536976.233805) can0 1FF#930C010001000200
(1754536976.233807) can0 2FF#0100010001000200
(1754536976.235078) can0 3FF#0200010000000100
(1754536976.333822) can0 1FF#A80D020002000200
(1754536976.333823) can0 2FF#0100020001000200
(1754536976.335725) can0 3FF#0100010000000100
(1754536976.433789) can0 1FF#F00C010002000300
(1754536976.433790) can0 2FF#0100020001000200
(1754536976.435727) can0 3FF#0100010000000100
(1754536976.533819) can0 1FF#C10C020001000300
(1754536976.533821) can0 2FF#0200010001000200
(1754536976.535679) can0 3FF#0200010000000100
(1754536976.633784) can0 1FF#030D010002000200
(1754536976.633786) can0 2FF#0200020001000200
(1754536976.635698) can0 3FF#0200010000000200
(1754536976.733796) can0 1FF#550D010002000200
(1754536976.733797) can0 2FF#0100020001000200
(1754536976.735702) can0 3FF#0100010000000100
(1754536976.833794) can0 1FF#4F0D010002000200
(1754536976.833796) can0 2FF#0100020001000200
(1754536976.835713) can0 3FF#0200010000000100
(1754536976.933798) can0 1FF#900C010001000200
(1754536976.933800) can0 2FF#0200020001000200
(1754536976.935701) can0 3FF#0200010000000100
(1754536977.033765) can0 1FF#690D010001000200
(1754536977.033767) can0 2FF#0200010001000200
(1754536977.035724) can0 3FF#0100010000000200
(1754536977.133825) can0 1FF#200D010001000200
(1754536977.133826) can0 2FF#0100020001000200
(1754536977.135757) can0 3FF#0200010000000200
(1754536977.233814) can0 1FF#830D010002000300
(1754536977.233816) can0 2FF#0100020001000200
(1754536977.234990) can0 3FF#0200010000000100
(1754536977.333820) can0 1FF#960C010001000200
(1754536977.333821) can0 2FF#0200020001000200
(1754536977.335769) can0 3FF#0100010000000200
(1754536977.433825) can0 1FF#490E010001000200
(1754536977.433826) can0 2FF#0200010001000100
(1754536977.435762) can0 3FF#0200010000000200
(1754536977.533761) can0 1FF#FF0C020002000200
(1754536977.533762) can0 2FF#0100020001000200
(1754536977.535731) can0 3FF#0200000000000100
(1754536977.633770) can0 1FF#AB0D020002000200
(1754536977.633772) can0 2FF#0200020001000200
(1754536977.635721) can0 3FF#0100010000000100
(1754536977.733752) can0 1FF#900C010001000200
(1754536977.733753) can0 2FF#0100020001000200
(1754536977.735683) can0 3FF#0100010000000100
(1754536977.833777) can0 1FF#4E0E010001000200
(1754536977.833778) can0 2FF#0200020001000200
(1754536977.835681) can0 3FF#0100010000000100
(1754536977.933745) can0 1FF#D10C010002000200
(1754536977.933746) can0 2FF#0100010001000200
(1754536977.935686) can0 3FF#0200010000000100
(1754536978.033779) can0 1FF#790D010002000200
(1754536978.033781) can0 2FF#0100010001000200
(1754536978.035689) can0 3FF#0200010000000100
(1754536978.133752) can0 1FF#9A0C010001000200
(1754536978.133754) can0 2FF#0200020001000200
(1754536978.135657) can0 3FF#0200010000000100
(1754536978.233791) can0 1FF#210E010001000200
(1754536978.233792) can0 2FF#0200020001000200
(1754536978.235065) can0 3FF#0100010000000100
(1754536978.333781) can0 1FF#C00C010001000200
(1754536978.333783) can0 2FF#0200020001000200
(1754536978.335691) can0 3FF#0200010000000100
(1754536978.433756) can0 1FF#450D010001000200
(1754536978.433758) can0 2FF#0100020001000200
(1754536978.435681) can0 3FF#0100010000000200
(1754536978.533848) can0 1FF#9D0C010002000200
(1754536978.533849) can0 2FF#0200020001000200
(1754536978.535669) can0 3FF#0100010000000100
(1754536978.633743) can0 1FF#B80D020002000200
(1754536978.633744) can0 2FF#0100020001000300
(1754536978.635691) can0 3FF#0200010000000200
(1754536978.733757) can0 1FF#CB0C010002000200
(1754536978.733758) can0 2FF#0100020002000300
(1754536978.735669) can0 3FF#0100010000000100
(1754536978.833721) can0 1FF#D50C010001000300
(1754536978.833722) can0 2FF#0200010001000200
(1754536978.835642) can0 3FF#0100020000000200
(1754536978.933755) can0 1FF#9A0C010001000300
(1754536978.933757) can0 2FF#0200010001000200
(1754536978.935666) can0 3FF#0200010000000200
(1754536979.033737) can0 1FF#8D0D020001000200
(1754536979.033738) can0 2FF#0200010001000200
(1754536979.035662) can0 3FF#0100010000000200
(1754536979.133781) can0 1FF#BC0C010002000200
(1754536979.133782) can0 2FF#0200020001000200
(1754536979.135690) can0 3FF#0100010000000100
(1754536979.233783) can0 1FF#D50C020002000200
(1754536979.233785) can0 2FF#0100020001000200
(1754536979.235046) can0 3FF#0100010000000100
(1754536979.333776) can0 1FF#560D020002000200
(1754536979.333777) can0 2FF#0200020001000200
(1754536979.335687) can0 3FF#0200000000000200
(1754536979.433799) can0 1FF#340D010001000200
(1754536979.433801) can0 2FF#0200020001000200
(1754536979.435720) can0 3FF#0100010000000200
(1754536979.533724) can0 1FF#070D010002000200
(1754536979.533725) can0 2FF#0200010001000200
(1754536979.535643) can0 3FF#0200010000000200
(1754536979.633708) can0 1FF#B10C010001000200
(1754536979.633709) can0 2FF#0200020001000200
(1754536979.635653) can0 3FF#0100010000000100
(1754536979.733715) can0 1FF#D40D020002000200
(1754536979.733717) can0 2FF#0100020002000200
(1754536979.735673) can0 3FF#0100010000000100
(1754536979.833706) can0 1FF#550D020001000200
(1754536979.833707) can0 2FF#0200010001000200
(1754536979.835610) can0 3FF#0100020000000100
(1754536979.933735) can0 1FF#620D010002000200
(1754536979.933736) can0 2FF#0200020001000200
(1754536979.935647) can0 3FF#0100010000000200
(1754536980.033718) can0 1FF#AB0C020002000200
(1754536980.033720) can0 2FF#0100020001000100
(1754536980.035674) can0 3FF#0100010000000100
(1754536980.133735) can0 1FF#350E010002000200
(1754536980.133737) can0 2FF#0200020001000200
(1754536980.135650) can0 3FF#0100010000000200
(1754536980.233723) can0 1FF#220D010001000200
(1754536980.233724) can0 2FF#0200020001000200
(1754536980.235038) can0 3FF#0100010000000200
(1754536980.333738) can0 1FF#800D020001000200
(1754536980.333739) can0 2FF#0200020001000200
(1754536980.335643) can0 3FF#0100010000000200
(1754536980.433716) can0 1FF#B20C010001000300
(1754536980.433717) can0 2FF#0200010001000200
(1754536980.435616) can0 3FF#0200010000000200
(1754536980.533722) can0 1FF#6A0E010002000300
(1754536980.533724) can0 2FF#0100020001000200
(1754536980.535619) can0 3FF#0100010000000100
(1754536980.633652) can0 1FF#F30C010001000200
(1754536980.633654) can0 2FF#0200020001000200
(1754536980.635611) can0 3FF#0200010000000100
(1754536980.733708) can0 1FF#A00D010001000200
(1754536980.733709) can0 2FF#0200010001000200
(1754536980.735617) can0 3FF#0100010000000200
(1754536980.833710) can0 1FF#500C010002000100
(1754536980.833712) can0 2FF#0200020001000100
(1754536980.835642) can0 3FF#0100000000000100
(1754536980.933712) can0 1FF#2A0E010002000200
(1754536980.933714) can0 2FF#0100030002000300
(1754536980.935646) can0 3FF#0100010000000100
(1754536981.033741) can0 1FF#EB0C010001000300
(1754536981.033742) can0 2FF#0200010001000200
(1754536981.035624) can0 3FF#0100020000000100
(1754536981.133737) can0 1FF#C90D020001000200
(1754536981.133738) can0 2FF#0200020001000200
(1754536981.135670) can0 3FF#0100010000000200
(1754536981.233721) can0 1FF#740C010002000200
(1754536981.233723) can0 2FF#0100020001000300
(1754536981.235033) can0 3FF#0100010000000100
(1754536981.333719) can0 1FF#450E010002000200
(1754536981.333720) can0 2FF#0100020001000200
(1754536981.335646) can0 3FF#0100010000000100
(1754536981.433738) can0 1FF#020D010002000200
(1754536981.433739) can0 2FF#0100020001000200
(1754536981.435645) can0 3FF#0200010000000100
(1754536981.533634) can0 1FF#820D010002000200
(1754536981.533636) can0 2FF#0100020001000200
(1754536981.535612) can0 3FF#0100010000000100
(1754536981.633616) can0 1FF#210D010001000200
(1754536981.633617) can0 2FF#0200020001000200
(1754536981.635615) can0 3FF#0100010000000100
(1754536981.733686) can0 1FF#510E010001000200
(1754536981.733687) can0 2FF#0200010001000100
(1754536981.735618) can0 3FF#0200010000000200
(1754536981.833670) can0 1FF#BC0C010001000200
(1754536981.833672) can0 2FF#0100020001000200
(1754536981.835620) can0 3FF#0200010000000100
(1754536981.933686) can0 1FF#1D0D010001000200
(1754536981.933687) can0 2FF#0200020001000200
(1754536981.935622) can0 3FF#0200010000000100
(1754536982.033699) can0 1FF#0B0D010001000200
(1754536982.033700) can0 2FF#0200010001000200
(1754536982.035625) can0 3FF#0200010000000200
(1754536982.133685) can0 1FF#050E020001000200
(1754536982.133687) can0 2FF#0200010001000200
(1754536982.135621) can0 3FF#0100010000000100
(1754536982.233683) can0 1FF#CA0C010002000200
(1754536982.233685) can0 2FF#0100020001000200
(1754536982.235034) can0 3FF#0100010000000100
(1754536982.333689) can0 1FF#950D010001000200
(1754536982.333691) can0 2FF#0200020001000200
(1754536982.335623) can0 3FF#0100010000000200
(1754536982.433683) can0 1FF#570D010001000200
(1754536982.433686) can0 2FF#0200020001000100
(1754536982.435621) can0 3FF#0100010000000200
(1754536982.533685) can0 1FF#890E010001000200
(1754536982.533686) can0 2FF#0200020001000200
(1754536982.535631) can0 3FF#0200010000000200
(1754536982.633627) can0 1FF#DA0C010001000300
(1754536982.633629) can0 2FF#0200010001000200
(1754536982.635628) can0 3FF#0100020000000100
(1754536982.733676) can0 1FF#8A0D010001000200
(1754536982.733678) can0 2FF#0200010001000200
(1754536982.735623) can0 3FF#0100010000000100
(1754536982.833697) can0 1FF#400D020002000200
(1754536982.833699) can0 2FF#0100020001000100
(1754536982.835631) can0 3FF#0200010000000200
(1754536982.933696) can0 1FF#E80D010001000200
(1754536982.933698) can0 2FF#0200010001000200
(1754536982.935627) can0 3FF#0100010000000100
(1754536983.033699) can0 1FF#A80C010001000200
(1754536983.033701) can0 2FF#0200010001000200
(1754536983.035633) can0 3FF#0200010000000200
(1754536983.133700) can0 1FF#550D010001000200
(1754536983.133702) can0 2FF#0200020001000200
(1754536983.135631) can0 3FF#0100010000000100
(1754536983.233688) can0 1FF#2D0D010001000300
(1754536983.233690) can0 2FF#0200010001000200
(1754536983.235029) can0 3FF#0200020000000200
(1754536983.333733) can0 1FF#100E020002000200
(1754536983.333735) can0 2FF#0200010001000200
(1754536983.335636) can0 3FF#0200010000000200
(1754536983.433696) can0 1FF#EB0C010001000200
(1754536983.433697) can0 2FF#0200020001000200
(1754536983.435629) can0 3FF#0100010000000100
(1754536983.533696) can0 1FF#9B0D020002000200
(1754536983.533697) can0 2FF#0100010001000200
(1754536983.535633) can0 3FF#0200010000000200
(1754536983.633692) can0 1FF#140D010001000200
(1754536983.633693) can0 2FF#0200010001000200
(1754536983.635622) can0 3FF#0100010000000200
(1754536983.733693) can0 1FF#070E020002000100
(1754536983.733694) can0 2FF#0100020001000200
(1754536983.735636) can0 3FF#0100010000000200
(1754536983.833688) can0 1FF#D50C010002000200
(1754536983.833689) can0 2FF#0100020001000200
(1754536983.835549) can0 3FF#0100010000000100
(1754536983.933698) can0 1FF#B60D020002000200
(1754536983.933699) can0 2FF#0200020001000200
(1754536983.935546) can0 3FF#0100010000000200
(1754536984.033693) can0 1FF#E90C010001000200
(1754536984.033694) can0 2FF#0200020001000200
(1754536984.035551) can0 3FF#0100010000000200
(1754536984.133688) can0 1FF#1A0E010001000300
(1754536984.133689) can0 2FF#0200010001000200
(1754536984.135546) can0 3FF#0200010000000200
(1754536984.233688) can0 1FF#AF0C010001000200
(1754536984.233690) can0 2FF#0100020001000200
(1754536984.235019) can0 3FF#0200010000000200
(1754536984.333737) can0 1FF#5D0D010002000200
(1754536984.333739) can0 2FF#0100020002000200
(1754536984.335549) can0 3FF#0100010000000100
(1754536984.433607) can0 1FF#2F0D010001000200
(1754536984.433609) can0 2FF#0100020001000200
(1754536984.435561) can0 3FF#0100010000000100
(1754536984.533616) can0 1FF#C90D010001000200
(1754536984.533618) can0 2FF#0200010001000200
(1754536984.535533) can0 3FF#0200010000000200
(1754536984.633615) can0 1FF#AB0C010001000300
(1754536984.633617) can0 2FF#0200010001000200
(1754536984.635530) can0 3FF#0200010000000200
(1754536984.733611) can0 1FF#6B0D010002000200
(1754536984.733612) can0 2FF#0100020001000200
(1754536984.735535) can0 3FF#0100010000000100
(1754536984.833621) can0 1FF#8D0D010002000200
(1754536984.833622) can0 2FF#0200020001000300
(1754536984.835529) can0 3FF#0100010000000100
(1754536984.933606) can0 1FF#940D010001000200
(1754536984.933607) can0 2FF#0200010001000100
(1754536984.935527) can0 3FF#0200010000000200
(1754536985.033598) can0 1FF#D20C010001000200
(1754536985.033600) can0 2FF#0200010001000100
(1754536985.035529) can0 3FF#0100020000000200
(1754536985.133685) can0 1FF#320D020002000200
(1754536985.133687) can0 2FF#0100020001000200
(1754536985.135644) can0 3FF#0100010000000100
(1754536985.233684) can0 1FF#9D0D010002000200
(1754536985.233686) can0 2FF#0100020001000200
(1754536985.235014) can0 3FF#0100010000000100
(1754536985.333713) can0 1FF#790D010001000300
(1754536985.333715) can0 2FF#0200010001000100
(1754536985.335635) can0 3FF#0100010000000200
(1754536985.433704) can0 1FF#FA0C010002000100
(1754536985.433705) can0 2FF#0100020002000200
(1754536985.435637) can0 3FF#0100010000000100
(1754536985.533684) can0 1FF#080D020002000100
(1754536985.533685) can0 2FF#0100020001000200
(1754536985.535559) can0 3FF#0100010000000100
(1754536985.633595) can0 1FF#950D020001000200
(1754536985.633597) can0 2FF#0200020002000200
(1754536985.635533) can0 3FF#0100010000000100
(1754536985.733588) can0 1FF#120D010001000300
(1754536985.733589) can0 2FF#0200020001000100
(1754536985.735531) can0 3FF#0200010000000200
(1754536985.833527) can0 1FF#640D020002000200
(1754536985.833528) can0 2FF#0200010001000200
(1754536985.835515) can0 3FF#0200010000000200
(1754536985.933529) can0 1FF#980D020001000200
(1754536985.933531) can0 2FF#0200020001000200
(1754536985.935529) can0 3FF#0100010000000200
(1754536986.033602) can0 1FF#470E010002000200
(1754536986.033604) can0 2FF#0100020001000200
(1754536986.035510) can0 3FF#0100010000000100
(1754536986.133520) can0 1FF#000D010002000200
(1754536986.133522) can0 2FF#0100010001000200
(1754536986.135543) can0 3FF#0100010000000100
(1754536986.233596) can0 1FF#D40D010001000200
(1754536986.233597) can0 2FF#0100020001000200
(1754536986.234987) can0 3FF#0100010000000200
(1754536986.333642) can0 1FF#1B0D020001000200
(1754536986.333643) can0 2FF#0200010001000200
(1754536986.335507) can0 3FF#0200010000000200
(1754536986.433805) can0 1FF#930E020001000200
(1754536986.433807) can0 2FF#0200020001000100
(1754536986.435511) can0 3FF#0200010000000200
(1754536986.533571) can0 1FF#E10C010002000200
(1754536986.533572) can0 2FF#0100010001000200
(1754536986.535514) can0 3FF#0100010000000200
(1754536986.633628) can0 1FF#F20D010001000200
(1754536986.633630) can0 2FF#0100020001000200
(1754536986.635500) can0 3FF#0100010000000100
(1754536986.733576) can0 1FF#310D010001000200
(1754536986.733578) can0 2FF#0200010001000100
(1754536986.735513) can0 3FF#0100020000000200
(1754536986.833602) can0 1FF#2C0E010001000300
(1754536986.833603) can0 2FF#0200010000000100
(1754536986.835513) can0 3FF#0200010000000200
(1754536986.933567) can0 1FF#F70C020002000100
(1754536986.933568) can0 2FF#0100020001000200
(1754536986.935488) can0 3FF#0200010000000200
(1754536987.033571) can0 1FF#C50D010001000300
(1754536987.033573) can0 2FF#0300010001000100
(1754536987.035510) can0 3FF#0100010000000200
(1754536987.133639) can0 1FF#190D020001000200
(1754536987.133640) can0 2FF#0200010001000100
(1754536987.135563) can0 3FF#0200010000000200
(1754536987.233636) can0 1FF#060E010002000200
(1754536987.233638) can0 2FF#0100020001000200
(1754536987.234985) can0 3FF#0100010000000200
(1754536987.333592) can0 1FF#980C010001000200
(1754536987.333594) can0 2FF#0200020001000200
(1754536987.335550) can0 3FF#0100010000000100
(1754536987.433596) can0 1FF#D70D010001000200
(1754536987.433598) can0 2FF#0200020001000200
(1754536987.435539) can0 3FF#0100010000000200
(1754536987.533559) can0 1FF#380D010001000200
(1754536987.533560) can0 2FF#0100020001000200
(1754536987.535513) can0 3FF#0100010000000200
(1754536987.633489) can0 1FF#DA0D010001000200
(1754536987.633491) can0 2FF#0200010001000100
(1754536987.635488) can0 3FF#0200010000000200
(1754536987.733559) can0 1FF#980C020001000200
(1754536987.733560) can0 2FF#0200010001000200
(1754536987.735464) can0 3FF#0200010000000200
(1754536987.833558) can0 1FF#790D010002000200
(1754536987.833559) can0 2FF#0100020001000200
(1754536987.835465) can0 3FF#0100010000000100
(1754536987.933751) can0 1FF#190D010002000200
(1754536987.933753) can0 2FF#0100020001000200
(1754536987.935497) can0 3FF#0100010000000200
(1754536988.033479) can0 1FF#B70D010001000200
(1754536988.033481) can0 2FF#0200010001000200
(1754536988.035473) can0 3FF#0100010000000100
(1754536988.133556) can0 1FF#7F0C010001000200
(1754536988.133557) can0 2FF#0200020001000200
(1754536988.135461) can0 3FF#0100010000000200
(1754536988.233559) can0 1FF#530D010001000200
(1754536988.233560) can0 2FF#0200020001000100
(1754536988.234969) can0 3FF#0100010000000200
(1754536988.333665) can0 1FF#FF0C010002000200
(1754536988.333668) can0 2FF#0200020001000200
(1754536988.335468) can0 3FF#0100010000000100
(1754536988.433538) can0 1FF#EF0D010001000200
(1754536988.433539) can0 2FF#0100020002000200
(1754536988.435470) can0 3FF#0200010000000100
(1754536988.533529) can0 1FF#830C010001000200
(1754536988.533531) can0 2FF#0200020001000200
(1754536988.535440) can0 3FF#0200010000000100
(1754536988.633543) can0 1FF#270D020002000100
(1754536988.633545) can0 2FF#0100020001000200
(1754536988.635469) can0 3FF#0100010000000100
(1754536988.733525) can0 1FF#D00D010002000200
(1754536988.733526) can0 2FF#0200010001000100
(1754536988.735471) can0 3FF#0200010000000200
(1754536988.833509) can0 1FF#540D010001000300
(1754536988.833511) can0 2FF#0200010001000200
(1754536988.835447) can0 3FF#0100010000000100
(1754536988.933567) can0 1FF#360D010000000300
(1754536988.933568) can0 2FF#0200010001000200
(1754536988.935467) can0 3FF#0100010000000100
(1754536989.033558) can0 1FF#1B0D020002000100
(1754536989.033560) can0 2FF#0100020002000200
(1754536989.035468) can0 3FF#0100010000000100
(1754536989.133531) can0 1FF#F80D010002000300
(1754536989.133533) can0 2FF#0100020001000200
(1754536989.135446) can0 3FF#0200010000000100
(1754536989.233533) can0 1FF#6D0D010001000300
(1754536989.233535) can0 2FF#0200010001000200
(1754536989.234983) can0 3FF#0100010000000100
(1754536989.333562) can0 1FF#820D010001000200
(1754536989.333564) can0 2FF#0200010001000100
(1754536989.335498) can0 3FF#0200010000000200
(1754536989.433673) can0 1FF#130D010001000200
(1754536989.433676) can0 2FF#0100020001000200
(1754536989.435478) can0 3FF#0100010000000100
(1754536989.533594) can0 1FF#480E020002000200
(1754536989.533596) can0 2FF#0200020001000200
(1754536989.535498) can0 3FF#0200010000000200
(1754536989.633531) can0 1FF#BC0C010001000200
(1754536989.633532) can0 2FF#0100030001000200
(1754536989.635444) can0 3FF#0100010000000100
(1754536989.733512) can0 1FF#AE0D020001000200
(1754536989.733514) can0 2FF#0200020001000200
(1754536989.735436) can0 3FF#0100010000000100
(1754536989.833515) can0 1FF#4F0D010001000300
(1754536989.833516) can0 2FF#0200010001000200
(1754536989.835421) can0 3FF#0200010000000200
(1754536989.933516) can0 1FF#6E0E010001000200
(1754536989.933518) can0 2FF#0200010001000200
(1754536989.935422) can0 3FF#0200000000000200
(1754536990.033518) can0 1FF#BC0C010001000200
(1754536990.033519) can0 2FF#0200020001000200
(1754536990.035421) can0 3FF#0200010000000100
(1754536990.133510) can0 1FF#C70D010002000300
(1754536990.133512) can0 2FF#0200020001000200
(1754536990.135422) can0 3FF#0200010000000200
(1754536990.233486) can0 1FF#260D010001000200
(1754536990.233488) can0 2FF#0200020001000200
(1754536990.234982) can0 3FF#0100010000000200
(1754536990.333501) can0 1FF#FA0D010002000200
(1754536990.333503) can0 2FF#0100010001000200
(1754536990.335447) can0 3FF#0200010000000200
(1754536990.433488) can0 1FF#8C0C010002000200
(1754536990.433489) can0 2FF#0100020001000200
(1754536990.435416) can0 3FF#0100010000000100
(1754536990.533517) can0 1FF#3F0D020001000200
(1754536990.533519) can0 2FF#0200010001000200
(1754536990.535427) can0 3FF#0100010000000200
(1754536990.633485) can0 1FF#710D010002000200
(1754536990.633486) can0 2FF#0100010001000200
(1754536990.635401) can0 3FF#0200010000000200
(1754536990.733497) can0 1FF#850D020001000300
(1754536990.733499) can0 2FF#0200010000000100
(1754536990.735430) can0 3FF#0200010000000200
(1754536990.833498) can0 1FF#610D010002000200
(1754536990.833500) can0 2FF#0100010001000100
(1754536990.835422) can0 3FF#0200010000000200
(1754536990.933424) can0 1FF#240D020002000200
(1754536990.933426) can0 2FF#0200020001000100
(1754536990.935424) can0 3FF#0200010000000100
(1754536991.033442) can0 1FF#010E010001000200
(1754536991.033444) can0 2FF#0200010001000200
(1754536991.035405) can0 3FF#0100010000000100
(1754536991.133511) can0 1FF#790D010001000200
(1754536991.133512) can0 2FF#0200020001000200
(1754536991.135428) can0 3FF#0100010000000100
(1754536991.233503) can0 1FF#AE0D010002000200
(1754536991.233505) can0 2FF#0100030002000300
(1754536991.234922) can0 3FF#0100010000000100
(1754536991.333549) can0 1FF#400D020001000300
(1754536991.333551) can0 2FF#0200010001000100
(1754536991.335459) can0 3FF#0100020000000200
(1754536991.433430) can0 1FF#540E020002000200
(1754536991.433432) can0 2FF#0200020001000100
(1754536991.435455) can0 3FF#0100010000000100
(1754536991.533459) can0 1FF#BC0C010001000200
(1754536991.533460) can0 2FF#0100020001000200
(1754536991.535396) can0 3FF#0200010000000100
(1754536991.633413) can0 1FF#C70D020001000200
(1754536991.633414) can0 2FF#0200020001000100
(1754536991.635401) can0 3FF#0200010000000200
(1754536991.733472) can0 1FF#560D010002000200
(1754536991.733473) can0 2FF#0100020001000200
(1754536991.735397) can0 3FF#0100010000000100
(1754536991.833470) can0 1FF#390E020001000200
(1754536991.833472) can0 2FF#0200020001000200
(1754536991.835405) can0 3FF#0200010000000200
(1754536991.933468) can0 1FF#D40C010001000200
(1754536991.933469) can0 2FF#0200020001000200
(1754536991.935399) can0 3FF#0200010000000200
(1754536992.033407) can0 1FF#D20D010001000200
(1754536992.033408) can0 2FF#0200020001000100
(1754536992.035388) can0 3FF#0100020000000200
(1754536992.133455) can0 1FF#550D010001000200
(1754536992.133457) can0 2FF#0200010001000200
(1754536992.135396) can0 3FF#0100010000000100
(1754536992.233470) can0 1FF#DC0D010002000200
(1754536992.233471) can0 2FF#0100020001000200
(1754536992.234967) can0 3FF#0100010000000100
(1754536992.333444) can0 1FF#A60C010001000200
(1754536992.333446) can0 2FF#0200010001000100
(1754536992.335386) can0 3FF#0200010000000200
(1754536992.433456) can0 1FF#5A0D010001000200
(1754536992.433457) can0 2FF#0200020001000100
(1754536992.435386) can0 3FF#0200010000000200
(1754536992.533448) can0 1FF#490D010001000300
(1754536992.533450) can0 2FF#0200010001000200
(1754536992.535358) can0 3FF#0200010000000200
(1754536992.633448) can0 1FF#CB0D010002000200
(1754536992.633449) can0 2FF#0200010001000200
(1754536992.635365) can0 3FF#0200010000000200
(1754536992.733421) can0 1FF#8B0C010002000300
(1754536992.733422) can0 2FF#0200010001000200
(1754536992.735359) can0 3FF#0200010000000200
(1754536992.833455) can0 1FF#630D020002000200
(1754536992.833457) can0 2FF#0200020001000200
(1754536992.835358) can0 3FF#0200010000000200
(1754536992.933457) can0 1FF#170D010002000200
(1754536992.933458) can0 2FF#0100020001000200
(1754536992.935382) can0 3FF#0100010000000200
(1754536993.033415) can0 1FF#9B0D010001000300
(1754536993.033417) can0 2FF#0200010001000100
(1754536993.035357) can0 3FF#0200010000000200
(1754536993.133463) can0 1FF#A10C010001000200
(1754536993.133464) can0 2FF#0100020002000300
(1754536993.135412) can0 3FF#0100010000000100
(1754536993.233469) can0 1FF#470D010001000200
(1754536993.233471) can0 2FF#0200010001000100
(1754536993.234946) can0 3FF#0200010000000200
(1754536993.333477) can0 1FF#910D010002000200
(1754536993.333479) can0 2FF#0200020001000200
(1754536993.335391) can0 3FF#0100010000000100
(1754536993.433448) can0 1FF#F10C020001000200
(1754536993.433450) can0 2FF#0100020002000200
(1754536993.435389) can0 3FF#0100010000000100
(1754536993.533423) can0 1FF#200D010002000200
(1754536993.533424) can0 2FF#0200020001000200
(1754536993.535359) can0 3FF#0200010000000200
(1754536993.633424) can0 1FF#700D020001000300
(1754536993.633426) can0 2FF#0200020001000200
(1754536993.635330) can0 3FF#0100010000000100
(1754536993.733400) can0 1FF#F70D010001000300
(1754536993.733402) can0 2FF#0200010001000100
(1754536993.735333) can0 3FF#0200010000000200
(1754536993.833430) can0 1FF#030D020001000200
(1754536993.833432) can0 2FF#0200020001000100
(1754536993.835361) can0 3FF#0100010000000100
(1754536993.933431) can0 1FF#9B0D010001000200
(1754536993.933433) can0 2FF#0200020001000200
(1754536993.935336) can0 3FF#0200010000000100
(1754536994.033430) can0 1FF#280D010001000300
(1754536994.033432) can0 2FF#0200010001000200
(1754536994.035332) can0 3FF#0200010000000100
(1754536994.133545) can0 1FF#350E010001000200
(1754536994.133547) can0 2FF#0200010001000100
(1754536994.135365) can0 3FF#0100010000000200
(1754536994.233401) can0 1FF#DB0C020001000200
(1754536994.233402) can0 2FF#0200020001000200
(1754536994.234966) can0 3FF#0100010000000200
(1754536994.333422) can0 1FF#C40D020002000300
(1754536994.333424) can0 2FF#0200020001000200
(1754536994.335344) can0 3FF#0100010000000200
(1754536994.433419) can0 1FF#3E0D010002000200
(1754536994.433420) can0 2FF#0200020001000200
(1754536994.435345) can0 3FF#0100010000000100
(1754536994.533411) can0 1FF#420E010001000200
(1754536994.533412) can0 2FF#0200020001000200
(1754536994.535317) can0 3FF#0200010000000200
(1754536994.633408) can0 1FF#C30C020002000200
(1754536994.633409) can0 2FF#0100020001000200
(1754536994.635340) can0 3FF#0100010000000100
(1754536994.733378) can0 1FF#E50D020001000200
(1754536994.733380) can0 2FF#0200010001000200
(1754536994.735314) can0 3FF#0100010000000100
(1754536994.833350) can0 1FF#190D010001000300
(1754536994.833352) can0 2FF#0200020001000200
(1754536994.835295) can0 3FF#0200020000000200
(1754536994.933405) can0 1FF#400E010001000300
(1754536994.933406) can0 2FF#0200020001000300
(1754536994.935318) can0 3FF#0100010000000100
(1754536995.033383) can0 1FF#C90C020002000200
(1754536995.033384) can0 2FF#0100020001000200
(1754536995.035318) can0 3FF#0200010000000200
(1754536995.133411) can0 1FF#D30D020002000100
(1754536995.133413) can0 2FF#0100030001000200
(1754536995.135347) can0 3FF#0100000000000100
(1754536995.233406) can0 1FF#590D010001000200
(1754536995.233407) can0 2FF#0200020001000200
(1754536995.234885) can0 3FF#0100010000000200
(1754536995.333351) can0 1FF#F30D010002000200
(1754536995.333353) can0 2FF#0100020002000200
(1754536995.335349) can0 3FF#0100010000000100
(1754536995.433436) can0 1FF#940C010001000200
(1754536995.433437) can0 2FF#0100020001000200
(1754536995.435377) can0 3FF#0100010000000200
(1754536995.533437) can0 1FF#740D010001000300
(1754536995.533439) can0 2FF#0200010001000200
(1754536995.535351) can0 3FF#0200010000000100
(1754536995.633384) can0 1FF#570D010002000200
(1754536995.633386) can0 2FF#0100020001000200
(1754536995.635285) can0 3FF#0100020000000100
(1754536995.733356) can0 1FF#4F0D010001000200
(1754536995.733357) can0 2FF#0200020001000100
(1754536995.735295) can0 3FF#0200010000000200
(1754536995.833359) can0 1FF#B10C010002000300
(1754536995.833360) can0 2FF#0100020001000200
(1754536995.835310) can0 3FF#0100010000000100
(1754536995.933326) can0 1FF#7E0D010002000200
(1754536995.933327) can0 2FF#0100020001000200
(1754536995.935296) can0 3FF#0200010000000100
(1754536996.033384) can0 1FF#2E0D010002000200
(1754536996.033385) can0 2FF#0200020001000200
(1754536996.035293) can0 3FF#0100010000000100
(1754536996.133369) can0 1FF#150D020001000200
(1754536996.133371) can0 2FF#0200020001000200
(1754536996.135291) can0 3FF#0200010000000200
(1754536996.233304) can0 1FF#2A0D010002000300
(1754536996.233305) can0 2FF#0200020001000200
(1754536996.234923) can0 3FF#0100010000000200
(1754536996.333359) can0 1FF#2B0D010002000200
(1754536996.333360) can0 2FF#0100020001000200
(1754536996.335415) can0 3FF#0100010000000100
(1754536996.433380) can0 1FF#E80D010001000300
(1754536996.433381) can0 2FF#0200010001000200
(1754536996.435294) can0 3FF#0100010000000200
(1754536996.533357) can0 1FF#F30C020001000200
(1754536996.533358) can0 2FF#0100020001000200
(1754536996.535266) can0 3FF#0200010000000100
(1754536996.633371) can0 1FF#210D010002000200
(1754536996.633372) can0 2FF#0100020001000200
(1754536996.635291) can0 3FF#0100010000000100
(1754536996.733362) can0 1FF#230D010001000300
(1754536996.733363) can0 2FF#0200010001000200
(1754536996.735281) can0 3FF#0100010000000100
(1754536996.833356) can0 1FF#170E020001000200
(1754536996.833357) can0 2FF#0100020001000200
(1754536996.835317) can0 3FF#0100010000000200
(1754536996.933327) can0 1FF#E50C010001000300
(1754536996.933329) can0 2FF#0200010001000100
(1754536996.935275) can0 3FF#0200010000000200
(1754536997.033362) can0 1FF#920D010001000200
(1754536997.033363) can0 2FF#0200010001000200
(1754536997.035277) can0 3FF#0100010000000200
(1754536997.133320) can0 1FF#350D020002000300
(1754536997.133321) can0 2FF#0100010001000200
(1754536997.135274) can0 3FF#0200010000000200
(1754536997.233358) can0 1FF#600E010001000200
(1754536997.233359) can0 2FF#0100020001000300
(1754536997.234903) can0 3FF#0100010000000100
(1754536997.333394) can0 1FF#980C010001000200
(1754536997.333395) can0 2FF#0200010001000200
(1754536997.335331) can0 3FF#0100010000000200
(1754536997.433394) can0 1FF#BA0D010001000200
(1754536997.433395) can0 2FF#0100020001000200
(1754536997.435299) can0 3FF#0200010000000100
(1754536997.533373) can0 1FF#160D010001000300
(1754536997.533374) can0 2FF#0200010001000200
(1754536997.535301) can0 3FF#0200010000000200
(1754536997.633331) can0 1FF#C90D010002000200
(1754536997.633332) can0 2FF#0200010001000200
(1754536997.635313) can0 3FF#0100010000000200
(1754536997.733333) can0 1FF#890C020001000200
(1754536997.733334) can0 2FF#0100020001000200
(1754536997.735285) can0 3FF#0200010000000200
(1754536997.833334) can0 1FF#800D020001000200
(1754536997.833336) can0 2FF#0200020001000200
(1754536997.835281) can0 3FF#0100010000000200
(1754536997.933280) can0 1FF#320D010001000200
(1754536997.933281) can0 2FF#0200020001000200
(1754536997.935253) can0 3FF#0100010000000200
(1754536998.033334) can0 1FF#1E0D010001000300
(1754536998.033335) can0 2FF#0200020001000200
(1754536998.035248) can0 3FF#0200010000000200
(1754536998.133318) can0 1FF#E40C010001000200
(1754536998.133320) can0 2FF#0200020001000200
(1754536998.135228) can0 3FF#0200010000000200
(1754536998.233353) can0 1FF#200D020002000200
(1754536998.233354) can0 2FF#0200020001000200
(1754536998.234919) can0 3FF#0100010000000200
(1754536998.333341) can0 1FF#080E010002000200
(1754536998.333342) can0 2FF#0200020001000200
(1754536998.335255) can0 3FF#0100010000000100
(1754536998.433341) can0 1FF#FC0C020002000200
(1754536998.433342) can0 2FF#0200020001000200
(1754536998.435253) can0 3FF#0100010000000200
(1754536998.533314) can0 1FF#480D010002000200
(1754536998.533315) can0 2FF#0200020001000200
(1754536998.535224) can0 3FF#0200010000000200
(1754536998.633327) can0 1FF#210D020001000200
(1754536998.633330) can0 2FF#0100020001000200
(1754536998.635237) can0 3FF#0100010000000100
(1754536998.733277) can0 1FF#F30D010001000200
(1754536998.733279) can0 2FF#0100020001000100
(1754536998.735235) can0 3FF#0100010000000100
(1754536998.833325) can0 1FF#FE0C010001000200
(1754536998.833326) can0 2FF#0200020001000300
(1754536998.835234) can0 3FF#0100010000000100
(1754536998.933295) can0 1FF#AB0D010001000300
(1754536998.933297) can0 2FF#0200010001000200
(1754536998.935208) can0 3FF#0200010000000100
(1754536999.033303) can0 1FF#730D010001000300
(1754536999.033305) can0 2FF#0200010001000200
(1754536999.035208) can0 3FF#0200010000000200
(1754536999.133451) can0 1FF#230E020002000200
(1754536999.133453) can0 2FF#0100030002000300
(1754536999.135265) can0 3FF#0100010000000100
(1754536999.233264) can0 1FF#F80C010001000300
(1754536999.233266) can0 2FF#0200010001000100
(1754536999.234902) can0 3FF#0200010000000200
(1754536999.333347) can0 1FF#CE0D020002000200
(1754536999.333348) can0 2FF#0100020001000200
(1754536999.335252) can0 3FF#0200000000000100
(1754536999.433318) can0 1FF#430D020002000200
(1754536999.433320) can0 2FF#0200010001000100
(1754536999.435263) can0 3FF#0200010000000200
(1754536999.533350) can0 1FF#660E010001000200
(1754536999.533352) can0 2FF#0100020002000200
(1754536999.535293) can0 3FF#0100020000000100
(1754536999.633380) can0 1FF#2A0D010001000200
(1754536999.633381) can0 2FF#0200020001000200
(1754536999.635285) can0 3FF#0100010000000100
(1754536999.733337) can0 1FF#C20D010001000200
(1754536999.733338) can0 2FF#0200020001000200
(1754536999.735258) can0 3FF#0100010000000100
(1754536999.833301) can0 1FF#610D010001000300
(1754536999.833303) can0 2FF#0200020001000200
(1754536999.835215) can0 3FF#0100010000000100
(1754536999.933288) can0 1FF#010E010001000200
(1754536999.933290) can0 2FF#0200010001000100
(1754536999.935245) can0 3FF#0200010000000200
(1754537000.033272) can0 1FF#C20C010001000200
(1754537000.033274) can0 2FF#0200010001000200
(1754537000.035216) can0 3FF#0100010000000100
(1754537000.133253) can0 1FF#E60D010001000200
(1754537000.133254) can0 2FF#0200010001000200
(1754537000.135202) can0 3FF#0200010000000200
(1754537000.233269) can0 1FF#450D010002000200
(1754537000.233270) can0 2FF#0100020001000200
(1754537000.234893) can0 3FF#0100010000000200
(1754537000.333294) can0 1FF#180E010002000200
(1754537000.333295) can0 2FF#0200020001000200
(1754537000.335232) can0 3FF#0200010000000200
(1754537000.433246) can0 1FF#B30C010002000200
(1754537000.433248) can0 2FF#0200020001000100
(1754537000.435198) can0 3FF#0100010000000200
(1754537000.533213) can0 1FF#D20D020002000200
(1754537000.533214) can0 2FF#0200020002000100
(1754537000.535214) can0 3FF#0100010000000100
(1754537000.633275) can0 1FF#300D010001000200
(1754537000.633276) can0 2FF#0200020001000200
(1754537000.635189) can0 3FF#0200010000000200
(1754537000.733272) can0 1FF#820D010001000200
(1754537000.733274) can0 2FF#0200020001000200
(1754537000.735186) can0 3FF#0100010000000100
(1754537000.833253) can0 1FF#770C010002000200
(1754537000.833254) can0 2FF#0200020001000100
(1754537000.835185) can0 3FF#0200010000000200
(1754537000.933283) can0 1FF#970D020002000200
(1754537000.933285) can0 2FF#0100010001000200
(1754537000.935185) can0 3FF#0100010000000200
(1754537001.033253) can0 1FF#370D010002000100
(1754537001.033254) can0 2FF#0200020001000200
(1754537001.035219) can0 3FF#0100010000000100
(1754537001.133251) can0 1FF#5D0D010002000200
(1754537001.133253) can0 2FF#0200020001000200
(1754537001.135161) can0 3FF#0100010000000200
(1754537001.233353) can0 1FF#CF0C010001000200
(1754537001.233354) can0 2FF#0200010001000100
(1754537001.234914) can0 3FF#0200010000000200
(1754537001.333218) can0 1FF#590D020001000300
(1754537001.333220) can0 2FF#0200010001000200
(1754537001.335199) can0 3FF#0200010000000200
(1754537001.433277) can0 1FF#520D010002000100
(1754537001.433278) can0 2FF#0100030002000300
(1754537001.435233) can0 3FF#0100000000000100
(1754537001.533266) can0 1FF#7C0D010002000200
(1754537001.533267) can0 2FF#0100020002000200
(1754537001.535243) can0 3FF#0100010000000100
(1754537001.633304) can0 1FF#D60C010002000200
(1754537001.633305) can0 2FF#0100020002000300
(1754537001.635259) can0 3FF#0000010000000100
(1754537001.733304) can0 1FF#5E0D020002000100
(1754537001.733305) can0 2FF#0100020001000200
(1754537001.735243) can0 3FF#0100010000000100
(1754537001.833314) can0 1FF#240D010001000200
(1754537001.833316) can0 2FF#0200010001000100
(1754537001.835231) can0 3FF#0200010000000200
(1754537001.933266) can0 1FF#1D0D020001000200
(1754537001.933268) can0 2FF#0200020001000200
(1754537001.935176) can0 3FF#0200010000000100
(1754537002.033251) can0 1FF#F20C010001000300
(1754537002.033253) can0 2FF#0200020001000200
(1754537002.035205) can0 3FF#0100010000000100
(1754537002.133230) can0 1FF#450D010001000200
(1754537002.133231) can0 2FF#0100020002000200
(1754537002.135166) can0 3FF#0100010000000100
(1754537002.233239) can0 1FF#4F0D010002000200
(1754537002.233241) can0 2FF#0200020001000200
(1754537002.234886) can0 3FF#0100010000000200
(1754537002.333261) can0 1FF#F70C020002000200
(1754537002.333262) can0 2FF#0100020002000200
(1754537002.335170) can0 3FF#0100010000000100
(1754537002.433224) can0 1FF#E10C010001000200
(1754537002.433226) can0 2FF#0200020001000200
(1754537002.435146) can0 3FF#0200010000000100
(1754537002.533255) can0 1FF#3A0D020002000200
(1754537002.533257) can0 2FF#0100020001000200
(1754537002.535186) can0 3FF#0200010000000200
(1754537002.633232) can0 1FF#C00D010002000200
(1754537002.633234) can0 2FF#0100020001000200
(1754537002.635144) can0 3FF#0200000000000200
(1754537002.733349) can0 1FF#E70C010001000200
(1754537002.733350) can0 2FF#0100020001000200
(1754537002.735153) can0 3FF#0100010000000100
(1754537002.833362) can0 1FF#700D010001000200
(1754537002.833364) can0 2FF#0100020001000200
(1754537002.835150) can0 3FF#0100020000000100
(1754537002.933274) can0 1FF#3D0D020002000300
(1754537002.933276) can0 2FF#0200010001000100
(1754537002.935200) can0 3FF#0100010000000200
(1754537003.033246) can0 1FF#B40D010002000200
(1754537003.033248) can0 2FF#0200010001000200
(1754537003.035154) can0 3FF#0100010000000200
(1754537003.133214) can0 1FF#E40C010001000300
(1754537003.133216) can0 2FF#0100020002000200
(1754537003.135147) can0 3FF#0100010000000100
(1754537003.233212) can0 1FF#780D020001000200
(1754537003.233214) can0 2FF#0200010001000200
(1754537003.234874) can0 3FF#0200010000000200
(1754537003.333180) can0 1FF#260D020002000200
(1754537003.333182) can0 2FF#0200020001000200
(1754537003.335156) can0 3FF#0200010000000200
(1754537003.433200) can0 1FF#B20D010001000200
(1754537003.433202) can0 2FF#0200010001000200
(1754537003.435125) can0 3FF#0200010000000200
(1754537003.533149) can0 1FF#D40C010002000200
(1754537003.533150) can0 2FF#0100020001000200
(1754537003.535127) can0 3FF#0100020000000100
(1754537003.633249) can0 1FF#AD0D010001000300
(1754537003.633251) can0 2FF#0200010001000200
(1754537003.635154) can0 3FF#0200010000000200
(1754537003.733248) can0 1FF#0A0D010001000200
(1754537003.733250) can0 2FF#0200020001000200
(1754537003.735196) can0 3FF#0100010000000100
(1754537003.833267) can0 1FF#010E010002000100
(1754537003.833269) can0 2FF#0100020001000200
(1754537003.835204) can0 3FF#0100010000000100
(1754537003.933266) can0 1FF#F70C020001000200
(1754537003.933267) can0 2FF#0100010001000100
(1754537003.935201) can0 3FF#0200010000000200
(1754537004.033216) can0 1FF#C00D020002000200
(1754537004.033218) can0 2FF#0100030001000200
(1754537004.035156) can0 3FF#0100010000000100
(1754537004.133183) can0 1FF#4A0D020001000200
(1754537004.133185) can0 2FF#0200020001000100
(1754537004.135159) can0 3FF#0200010000000200
(1754537004.233200) can0 1FF#E10D010001000200
(1754537004.233202) can0 2FF#0100020001000300
(1754537004.234883) can0 3FF#0100010000000100
(1754537004.333193) can0 1FF#9A0C010001000200
(1754537004.333194) can0 2FF#0200020001000200
(1754537004.335106) can0 3FF#0100010000000100
(1754537004.433227) can0 1FF#A60D010002000200
(1754537004.433229) can0 2FF#0200010001000100
(1754537004.435128) can0 3FF#0200010000000200
(1754537004.533141) can0 1FF#240D010001000200
(1754537004.533143) can0 2FF#0200020001000200
(1754537004.535115) can0 3FF#0100010000000100
(1754537004.633172) can0 1FF#A30D010001000200
(1754537004.633174) can0 2FF#0200010001000200
(1754537004.635094) can0 3FF#0100010000000100
(1754537004.733153) can0 1FF#930C010001000300
(1754537004.733154) can0 2FF#0200020001000200
(1754537004.735075) can0 3FF#0100010000000100
(1754537004.833335) can0 1FF#8C0D020001000200
(1754537004.833336) can0 2FF#0200010000000100
(1754537004.835107) can0 3FF#0200010000000200
(1754537004.933168) can0 1FF#FE0C010001000200
(1754537004.933170) can0 2FF#0100020001000200
(1754537004.935106) can0 3FF#0100010000000100
(1754537005.033171) can0 1FF#440D010001000200
(1754537005.033173) can0 2FF#0100020002000300
(1754537005.035103) can0 3FF#0100010000000100
(1754537005.133199) can0 1FF#E20C010001000200
(1754537005.133201) can0 2FF#0200010001000100
(1754537005.135141) can0 3FF#0100010000000200
(1754537005.233174) can0 1FF#350D010001000200
(1754537005.233175) can0 2FF#0200010001000200
(1754537005.234888) can0 3FF#0200010000000100
(1754537005.333176) can0 1FF#C60D010001000100
(1754537005.333177) can0 2FF#0100020001000200
(1754537005.335104) can0 3FF#0100010000000100
(1754537005.433194) can0 1FF#010D010002000200
(1754537005.433196) can0 2FF#0100020002000300
(1754537005.435111) can0 3FF#0100010000000100
(1754537005.533123) can0 1FF#B90D010002000200
(1754537005.533124) can0 2FF#0100020001000200
(1754537005.535103) can0 3FF#0100000000000100
(1754537005.633176) can0 1FF#2B0D010001000200
(1754537005.633178) can0 2FF#0100020002000200
(1754537005.635109) can0 3FF#0100010000000100
(1754537005.733200) can0 1FF#E60D020002000200
(1754537005.733202) can0 2FF#0100010001000200
(1754537005.735139) can0 3FF#0100010000000100
(1754537005.833198) can0 1FF#EB0C010001000300
(1754537005.833199) can0 2FF#0200010001000200
(1754537005.835135) can0 3FF#0100010000000200
(1754537005.933214) can0 1FF#CA0D010001000200
(1754537005.933215) can0 2FF#0200020001000200
(1754537005.935117) can0 3FF#0100010000000100
(1754537006.033202) can0 1FF#520D020002000200
(1754537006.033204) can0 2FF#0200020001000200
(1754537006.035113) can0 3FF#0200010000000100
(1754537006.133178) can0 1FF#EA0D010001000200
(1754537006.133180) can0 2FF#0200010001000200
(1754537006.135085) can0 3FF#0100010000000100
(1754537006.233180) can0 1FF#1E0D010002000200
(1754537006.233181) can0 2FF#0100020001000200
(1754537006.234852) can0 3FF#0100010000000100
(1754537006.333130) can0 1FF#BD0D020002000300
(1754537006.333132) can0 2FF#0200010001000100
(1754537006.335084) can0 3FF#0100010000000200
(1754537006.433150) can0 1FF#330D010002000200
(1754537006.433151) can0 2FF#0100020001000200
(1754537006.435079) can0 3FF#0100010000000100
(1754537006.533135) can0 1FF#ED0D010001000200
(1754537006.533136) can0 2FF#0200020001000200
(1754537006.535049) can0 3FF#0200010000000200
(1754537006.633119) can0 1FF#CD0C010001000200
(1754537006.633121) can0 2FF#0100020001000200
(1754537006.635064) can0 3FF#0100010000000100
(1754537006.733148) can0 1FF#C80D010001000300
(1754537006.733149) can0 2FF#0200020001000200
(1754537006.735059) can0 3FF#0200010000000200
(1754537006.833155) can0 1FF#7D0D010002000200
(1754537006.833156) can0 2FF#0100020001000200
(1754537006.835087) can0 3FF#0200010000000100
(1754537006.933151) can0 1FF#EE0D010001000300
(1754537006.933152) can0 2FF#0200010001000200
(1754537006.935033) can0 3FF#0200010000000100
(1754537007.033064) can0 1FF#920C010001000200
(1754537007.033065) can0 2FF#0200020001000200
(1754537007.035037) can0 3FF#0100010000000100
(1754537007.133123) can0 1FF#C80D010001000300
(1754537007.133125) can0 2FF#0200010001000100
(1754537007.135065) can0 3FF#0200010000000200
(1754537007.233125) can0 1FF#210D010002000200
(1754537007.233126) can0 2FF#0100020001000200
(1754537007.234866) can0 3FF#0200010000000200
(1754537007.333129) can0 1FF#7A0D020002000200
(1754537007.333131) can0 2FF#0200020001000100
(1754537007.335089) can0 3FF#0200010000000200
(1754537007.433128) can0 1FF#810C010002000200
(1754537007.433129) can0 2FF#0200010001000100
(1754537007.435066) can0 3FF#0200000000000200
(1754537007.533069) can0 1FF#750D010002000200
(1754537007.533070) can0 2FF#0100020001000200
(1754537007.535046) can0 3FF#0100010000000100
(1754537007.633112) can0 1FF#420D010002000200
(1754537007.633113) can0 2FF#0100020001000200
(1754537007.635119) can0 3FF#0100010000000100
(1754537007.733132) can0 1FF#310D010002000200
(1754537007.733134) can0 2FF#0100020001000200
(1754537007.735062) can0 3FF#0100010000000100
(1754537007.833150) can0 1FF#D30C010002000200
(1754537007.833152) can0 2FF#0200020001000200
(1754537007.835022) can0 3FF#0100010000000100
(1754537007.933147) can0 1FF#520D010001000300
(1754537007.933149) can0 2FF#0200010002000200
(1754537007.935067) can0 3FF#0100010000000200
(1754537008.033145) can0 1FF#4F0D010002000200
(1754537008.033146) can0 2FF#0100020001000200
(1754537008.035067) can0 3FF#0100010000000100
(1754537008.133147) can0 1FF#FF0C010001000300
(1754537008.133149) can0 2FF#0200020001000200
(1754537008.135100) can0 3FF#0100010000000100
(1754537008.233098) can0 1FF#1D0D010002000100
(1754537008.233099) can0 2FF#0100020001000200
(1754537008.234845) can0 3FF#0100000000000100
(1754537008.333037) can0 1FF#B10D010001000200
(1754537008.333038) can0 2FF#0100010001000200
(1754537008.335012) can0 3FF#0100020000000100
(1754537008.433077) can0 1FF#AF0D010002000200
(1754537008.433078) can0 2FF#0200020001000200
(1754537008.434995) can0 3FF#0200000000000100
(1754537008.533087) can0 1FF#E10C020002000200
(1754537008.533089) can0 2FF#0100020002000200
(1754537008.535025) can0 3FF#0100010000000100
(1754537008.633105) can0 1FF#530D010002000200
(1754537008.633107) can0 2FF#0100020002000300
(1754537008.635048) can0 3FF#0100010000000100
(1754537008.733111) can0 1FF#740D020001000200
(1754537008.733112) can0 2FF#0200020001000200
(1754537008.735019) can0 3FF#0100010000000100
(1754537008.833080) can0 1FF#C90D010002000200
(1754537008.833082) can0 2FF#0100020001000200
(1754537008.835016) can0 3FF#0100010000000100
(1754537008.933112) can0 1FF#EA0C010002000200
(1754537008.933114) can0 2FF#0200020001000200
(1754537008.935029) can0 3FF#0100010000000200
(1754537009.033080) can0 1FF#AF0D010001000200
(1754537009.033081) can0 2FF#0100020002000200
(1754537009.035021) can0 3FF#0100010000000100
(1754537009.133110) can0 1FF#5C0D010001000200
(1754537009.133112) can0 2FF#0200020001000200
(1754537009.134967) can0 3FF#0100010000000200
(1754537009.233116) can0 1FF#0C0E020002000200
(1754537009.233118) can0 2FF#0100010001000200
(1754537009.234846) can0 3FF#0100010000000200
(1754537009.333081) can0 1FF#AF0C010001000300
(1754537009.333082) can0 2FF#0200010001000100
(1754537009.335022) can0 3FF#0200010000000200
(1754537009.433086) can0 1FF#D60D020002000200
(1754537009.433088) can0 2FF#0100020001000200
(1754537009.435021) can0 3FF#0100010000000100
(1754537009.533085) can0 1FF#450D010002000200
(1754537009.533086) can0 2FF#0100020002000200
(1754537009.534995) can0 3FF#0100010000000100
(1754537009.633084) can0 1FF#B50D020002000200
(1754537009.633085) can0 2FF#0100020001000100
(1754537009.635023) can0 3FF#0100010000000200
(1754537009.733086) can0 1FF#9B0C020002000100
(1754537009.733087) can0 2FF#0100020001000200
(1754537009.734984) can0 3FF#0100010000000100
(1754537009.833086) can0 1FF#D30D020002000200
(1754537009.833088) can0 2FF#0200010001000100
(1754537009.835032) can0 3FF#0200000000000200
(1754537009.933056) can0 1FF#0F0D010002000100
(1754537009.933058) can0 2FF#0100020002000200
(1754537009.935034) can0 3FF#0100010000000100
(1754537010.033113) can0 1FF#A40D020002000200
(1754537010.033115) can0 2FF#0100020001000100
(1754537010.035054) can0 3FF#0200010000000200
(1754537010.133143) can0 1FF#AC0C020002000200
(1754537010.133144) can0 2FF#0200020001000200
(1754537010.135050) can0 3FF#0200010000000200
(1754537010.233104) can0 1FF#AC0D010001000200
(1754537010.233105) can0 2FF#0200010001000200
(1754537010.234853) can0 3FF#0200010000000200
(1754537010.333095) can0 1FF#3E0D010002000200
(1754537010.333096) can0 2FF#0200020001000200
(1754537010.335007) can0 3FF#0100010000000200
(1754537010.433063) can0 1FF#FB0C010001000300
(1754537010.433065) can0 2FF#0200020001000100
(1754537010.435000) can0 3FF#0100010000000200
(1754537010.533062) can0 1FF#100D010001000300
(1754537010.533064) can0 2FF#0200020001000200
(1754537010.534984) can0 3FF#0100010000000100
(1754537010.633058) can0 1FF#6C0D010002000200
(1754537010.633060) can0 2FF#0100020001000200
(1754537010.634980) can0 3FF#0100010000000100
(1754537010.733070) can0 1FF#9A0D010002000200
(1754537010.733071) can0 2FF#0200020001000200
(1754537010.734991) can0 3FF#0100010000000100
(1754537010.833041) can0 1FF#C60C010001000300
(1754537010.833042) can0 2FF#0200020001000200
(1754537010.834952) can0 3FF#0200010000000100
(1754537010.933036) can0 1FF#DE0D020002000200
(1754537010.933037) can0 2FF#0200020001000200
(1754537010.934952) can0 3FF#0200010000000100
(1754537011.033073) can0 1FF#320D010002000200
(1754537011.033074) can0 2FF#0200020001000200
(1754537011.034985) can0 3FF#0100010000000100
(1754537011.133054) can0 1FF#0B0E010002000200
(1754537011.133056) can0 2FF#0100020001000100
(1754537011.134984) can0 3FF#0100010000000100
(1754537011.233038) can0 1FF#B30C020002000200
(1754537011.233040) can0 2FF#0100020001000200
(1754537011.234830) can0 3FF#0200000000000200
(1754537011.333038) can0 1FF#BD0D020002000200
(1754537011.333039) can0 2FF#0100020001000200
(1754537011.334949) can0 3FF#0100010000000100
(1754537011.433047) can0 1FF#190D010001000200
(1754537011.433049) can0 2FF#0200020001000200
(1754537011.434964) can0 3FF#0200010000000100
(1754537011.533052) can0 1FF#8A0D010001000200
(1754537011.533054) can0 2FF#0200020001000200
(1754537011.534959) can0 3FF#0100010000000100
(1754537011.633050) can0 1FF#AE0C010001000300
(1754537011.633051) can0 2FF#0200010001000100
(1754537011.634986) can0 3FF#0200010000000200
(1754537011.732976) can0 1FF#500D010001000300
(1754537011.732977) can0 2FF#0200010001000100
(1754537011.734969) can0 3FF#0200010000000200
(1754537011.833057) can0 1FF#320D010001000200
(1754537011.833058) can0 2FF#0100010001000200
(1754537011.835012) can0 3FF#0100010000000100
(1754537011.933102) can0 1FF#A00B020002000200
(1754537011.933104) can0 2FF#0100020001000200
(1754537011.935004) can0 3FF#0100010000000100
(1754537012.033069) can0 1FF#DA03010002000200
(1754537012.033071) can0 2FF#0100020001000200
(1754537012.035005) can0 3FF#0100000000000100
(1754537012.133074) can0 1FF#0E03010002000100
(1754537012.133076) can0 2FF#0100020001000200
(1754537012.134988) can0 3FF#0100010000000100
(1754537012.233028) can0 1FF#EE02010001000200
(1754537012.233030) can0 2FF#0200020001000200
(1754537012.234832) can0 3FF#0100010000000200
(1754537012.333004) can0 1FF#DB01010002000100
(1754537012.333006) can0 2FF#0100020002000200
(1754537012.334954) can0 3FF#0100010000000100
(1754537012.433022) can0 1FF#F702020001000300
(1754537012.433024) can0 2FF#0100020001000200
(1754537012.434927) can0 3FF#0100010000000100
(1754537012.533021) can0 1FF#7501010002000200
(1754537012.533022) can0 2FF#0100020001000200
(1754537012.534973) can0 3FF#0100010000000200
(1754537012.633024) can0 1FF#A902010002000200
(1754537012.633025) can0 2FF#0100020001000300
(1754537012.634944) can0 3FF#0100010000000100
(1754537012.733032) can0 1FF#7801010001000200
(1754537012.733033) can0 2FF#0200020001000200
(1754537012.734938) can0 3FF#0100010000000100
(1754537012.833151) can0 1FF#EA02010001000200
(1754537012.833153) can0 2FF#0200020001000200
(1754537012.834937) can0 3FF#0100010000000100
(1754537012.933025) can0 1FF#7D01010002000200
(1754537012.933026) can0 2FF#0200020001000200
(1754537012.934938) can0 3FF#0100010000000100
(1754537013.033005) can0 1FF#B402010001000200
(1754537013.033007) can0 2FF#0200020001000200
(1754537013.034909) can0 3FF#0100010000000200
(1754537013.133000) can0 1FF#6B01010001000200
(1754537013.133002) can0 2FF#0200020001000200
(1754537013.134933) can0 3FF#0100010000000100
(1754537013.233033) can0 1FF#0A03020002000200
(1754537013.233035) can0 2FF#0100020001000200
(1754537013.234814) can0 3FF#0100010000000200
(1754537013.333004) can0 1FF#6B01010001000200
(1754537013.333006) can0 2FF#0200010001000100
(1754537013.334947) can0 3FF#0200010000000200
(1754537013.432966) can0 1FF#9402020001000200
(1754537013.432967) can0 2FF#0200020001000200
(1754537013.434911) can0 3FF#0100010000000100
(1754537013.533035) can0 1FF#AD01010001000200
(1754537013.533038) can0 2FF#0100020001000300
(1754537013.534914) can0 3FF#0100010000000100
(1754537013.633006) can0 1FF#0403010002000200
(1754537013.633008) can0 2FF#0100020001000200
(1754537013.634924) can0 3FF#0100010000000100
(1754537013.733030) can0 1FF#7B01020002000200
(1754537013.733032) can0 2FF#0100020001000100
(1754537013.734938) can0 3FF#0100010000000100
(1754537013.833025) can0 1FF#C702010001000200
(1754537013.833027) can0 2FF#0200010001000300
(1754537013.834960) can0 3FF#0200010000000200
(1754537013.933058) can0 1FF#7C01010002000200
(1754537013.933060) can0 2FF#0100020001000200
(1754537013.934975) can0 3FF#0200010000000200
(1754537014.033035) can0 1FF#D402010001000200
(1754537014.033037) can0 2FF#0200010001000200
(1754537014.034938) can0 3FF#0100010000000100
(1754537014.132973) can0 1FF#5701010001000200
(1754537014.132975) can0 2FF#0200020001000200
(1754537014.134889) can0 3FF#0200000000000200
(1754537014.232981) can0 1FF#B102010001000200
(1754537014.232983) can0 2FF#0200020001000200
(1754537014.234821) can0 3FF#0100010000000200
(1754537014.333163) can0 1FF#7D01010001000200
(1754537014.333166) can0 2FF#0200010001000100
(1754537014.334934) can0 3FF#0200010000000100
(1754537014.432980) can0 1FF#B802010002000200
(1754537014.432982) can0 2FF#0100020001000200
(1754537014.434896) can0 3FF#0200010000000200
(1754537014.532991) can0 1FF#5401010001000200
(1754537014.532993) can0 2FF#0200020001000300
(1754537014.534893) can0 3FF#0100010000000100
(1754537014.633141) can0 1FF#C902010001000200
(1754537014.633143) can0 2FF#0200020001000200
(1754537014.634902) can0 3FF#0200010000000200
(1754537014.732960) can0 1FF#DD01010002000200
(1754537014.732961) can0 2FF#0100020001000200
(1754537014.734896) can0 3FF#0100010000000100
(1754537014.833140) can0 1FF#C802010001000200
(1754537014.833142) can0 2FF#0200020001000200
(1754537014.834898) can0 3FF#0100010000000100
(1754537014.932961) can0 1FF#8E01010001000200
(1754537014.932963) can0 2FF#0200010001000100
(1754537014.934892) can0 3FF#0200010000000200
(1754537015.032962) can0 1FF#B302020001000300
(1754537015.032964) can0 2FF#0200010001000200
(1754537015.034842) can0 3FF#0200010000000200
(1754537015.133055) can0 1FF#AF01010002000200
(1754537015.133056) can0 2FF#0100020001000200
(1754537015.134901) can0 3FF#0100010000000100
(1754537015.232945) can0 1FF#8B02020002000200
(1754537015.232948) can0 2FF#0100020001000300
(1754537015.234800) can0 3FF#0100010000000100
(1754537015.332947) can0 1FF#C701010001000200
(1754537015.332949) can0 2FF#0200020001000200
(1754537015.334841) can0 3FF#0100010000000100
(1754537015.432941) can0 1FF#5C02010001000300
(1754537015.432942) can0 2FF#0200020001000200
(1754537015.434867) can0 3FF#0100010000000100
(1754537015.532960) can0 1FF#D101010002000200
(1754537015.532962) can0 2FF#0100020001000200
(1754537015.534873) can0 3FF#0200010000000200
(1754537015.632983) can0 1FF#8302020002000200
(1754537015.632984) can0 2FF#0100020001000100
(1754537015.634923) can0 3FF#0100010000000100
(1754537015.732993) can0 1FF#E101010001000300
(1754537015.732995) can0 2FF#0200010001000200
(1754537015.734898) can0 3FF#0100010000000100
(1754537015.832983) can0 1FF#6402010001000200
(1754537015.832985) can0 2FF#0200020001000200
(1754537015.834901) can0 3FF#0100010000000100
(1754537015.933101) can0 1FF#7C01010001000200
(1754537015.933103) can0 2FF#0200020001000200
(1754537015.934939) can0 3FF#0100010000000200
(1754537016.033094) can0 1FF#B702020001000200
(1754537016.033097) can0 2FF#0200020001000100
(1754537016.034874) can0 3FF#0200010000000200
(1754537016.133121) can0 1FF#E001010001000200
(1754537016.133124) can0 2FF#0200010001000100
(1754537016.134904) can0 3FF#0200010000000200
(1754537016.232878) can0 1FF#9702010002000200
(1754537016.232880) can0 2FF#0100010001000200
(1754537016.234804) can0 3FF#0200010000000100
(1754537016.332932) can0 1FF#C601010002000200
(1754537016.332933) can0 2FF#0100020001000200
(1754537016.334867) can0 3FF#0100010000000100
(1754537016.432933) can0 1FF#8C02010001000200
(1754537016.432934) can0 2FF#0200020001000100
(1754537016.434846) can0 3FF#0100010000000100
(1754537016.532937) can0 1FF#FD01010001000200
(1754537016.532938) can0 2FF#0200020001000200
(1754537016.534870) can0 3FF#0100010000000100
(1754537016.632936) can0 1FF#2202010002000200
(1754537016.632938) can0 2FF#0100020001000200
(1754537016.634887) can0 3FF#0100010000000100
(1754537016.732936) can0 1FF#0C02010001000200
(1754537016.732937) can0 2FF#0200020001000100
(1754537016.734880) can0 3FF#0100010000000200
(1754537016.832943) can0 1FF#1E02010002000200
(1754537016.832944) can0 2FF#0200020001000200
(1754537016.834824) can0 3FF#0100010000000200
(1754537016.932924) can0 1FF#3402010001000200
(1754537016.932925) can0 2FF#0200020001000100
(1754537016.934859) can0 3FF#0200010000000200
(1754537017.033103) can0 1FF#E801010002000200
(1754537017.033105) can0 2FF#0100020001000200
(1754537017.034855) can0 3FF#0100010000000100
(1754537017.132921) can0 1FF#5D02010001000200
(1754537017.132923) can0 2FF#0200010001000200
(1754537017.134831) can0 3FF#0100010000000200
(1754537017.233013) can0 1FF#D901020001000200
(1754537017.233014) can0 2FF#0200020001000200
(1754537017.234778) can0 3FF#0100010000000100
(1754537017.332919) can0 1FF#5E02010001000300
(1754537017.332921) can0 2FF#0100010001000200
(1754537017.335138) can0 3FF#0200010000000200
(1754537017.432911) can0 1FF#AB01010001000300
(1754537017.432913) can0 2FF#0200010001000100
(1754537017.434807) can0 3FF#0200010000000200
(1754537017.532949) can0 1FF#8102010001000200
(1754537017.532951) can0 2FF#0200010001000200
(1754537017.534888) can0 3FF#0100010000000200
(1754537017.632941) can0 1FF#D201010001000200
(1754537017.632943) can0 2FF#0200020001000200
(1754537017.634855) can0 3FF#0100010000000100
(1754537017.732944) can0 1FF#6302010001000200
(1754537017.732946) can0 2FF#0200020001000200
(1754537017.734852) can0 3FF#0100010000000100
(1754537017.833078) can0 1FF#CE01010002000200
(1754537017.833081) can0 2FF#0100020001000200
(1754537017.834883) can0 3FF#0100010000000100
(1754537017.932915) can0 1FF#5C02010001000200
(1754537017.932917) can0 2FF#0100020001000200
(1754537017.934828) can0 3FF#0100010000000100
(1754537018.032895) can0 1FF#AD01010001000200
(1754537018.032897) can0 2FF#0100020001000200
(1754537018.034838) can0 3FF#0100010000000100
(1754537018.132900) can0 1FF#5B02010001000200
(1754537018.132901) can0 2FF#0200020001000200
(1754537018.134809) can0 3FF#0100010000000200
(1754537018.232906) can0 1FF#EA01010002000200
(1754537018.232908) can0 2FF#0100020001000200
(1754537018.234801) can0 3FF#0100010000000100
(1754537018.332903) can0 1FF#9102010002000200
(1754537018.332906) can0 2FF#0100020001000200
(1754537018.334808) can0 3FF#0200010000000100
(1754537018.432908) can0 1FF#AE01010001000200
(1754537018.432910) can0 2FF#0200010001000200
(1754537018.434799) can0 3FF#0100010000000200
(1754537018.532866) can0 1FF#9302010001000300
(1754537018.532868) can0 2FF#0200010001000200
(1754537018.534819) can0 3FF#0200010000000200
(1754537018.632885) can0 1FF#7C01010002000200
(1754537018.632886) can0 2FF#0100020001000100
(1754537018.634830) can0 3FF#0100010000000100
(1754537018.732862) can0 1FF#B802010001000200
(1754537018.732864) can0 2FF#0200020001000100
(1754537018.734811) can0 3FF#0100010000000100
(1754537018.832828) can0 1FF#8B01010001000200
(1754537018.832829) can0 2FF#0100020001000200
(1754537018.834806) can0 3FF#0100010000000100
(1754537018.932882) can0 1FF#B202010002000200
(1754537018.932883) can0 2FF#0100020001000300
(1754537018.934804) can0 3FF#0100010000000200
(1754537019.032874) can0 1FF#9E01010002000200
(1754537019.032876) can0 2FF#0100020001000200
(1754537019.034809) can0 3FF#0100010000000100
(1754537019.132862) can0 1FF#B302010001000200
(1754537019.132864) can0 2FF#0200010001000100
(1754537019.134802) can0 3FF#0200010000000200
(1754537019.232861) can0 1FF#9401020002000200
(1754537019.232862) can0 2FF#0100020001000200
(1754537019.234808) can0 3FF#0100000000000100
(1754537019.332872) can0 1FF#AE02010002000200
(1754537019.332874) can0 2FF#0200020001000200
(1754537019.334805) can0 3FF#0200010000000100
(1754537019.432895) can0 1FF#8801010001000300
(1754537019.432896) can0 2FF#0200010001000100
(1754537019.434791) can0 3FF#0200010000000200
(1754537019.532906) can0 1FF#B102010001000200
(1754537019.532908) can0 2FF#0100020001000200
(1754537019.534836) can0 3FF#0100010000000100
(1754537019.632893) can0 1FF#A001010001000200
(1754537019.632894) can0 2FF#0100020002000300
(1754537019.634852) can0 3FF#0100010000000100
(1754537019.732911) can0 1FF#5D02010001000200
(1754537019.732913) can0 2FF#0100020001000200
(1754537019.734832) can0 3FF#0200010000000100
(1754537019.832884) can0 1FF#F401010002000200
(1754537019.832885) can0 2FF#0200020001000100
(1754537019.834798) can0 3FF#0200010000000100
(1754537019.932991) can0 1FF#7002010002000200
(1754537019.932993) can0 2FF#0100020002000200
(1754537019.934827) can0 3FF#0100010000000100
(1754537020.032876) can0 1FF#BD01010002000200
(1754537020.032878) can0 2FF#0100020002000200
(1754537020.034808) can0 3FF#0100010000000100
(1754537020.132874) can0 1FF#3A02010001000300
(1754537020.132876) can0 2FF#0200010001000200
(1754537020.134812) can0 3FF#0200010000000200
(1754537020.232875) can0 1FF#F601010002000200
(1754537020.232878) can0 2FF#0200020001000200
(1754537020.234858) can0 3FF#0100010000000100
(1754537020.332866) can0 1FF#5E02010002000200
(1754537020.332868) can0 2FF#0200020001000200
(1754537020.334842) can0 3FF#0200010000000100
(1754537020.432864) can0 1FF#0502010002000200
(1754537020.432865) can0 2FF#0100020001000200
(1754537020.434822) can0 3FF#0100010000000100
(1754537020.532868) can0 1FF#0F02010001000200
(1754537020.532870) can0 2FF#0200020001000200
(1754537020.534811) can0 3FF#0200010000000100
(1754537020.632874) can0 1FF#1A02020001000300
(1754537020.633814) can0 2FF#0100010001000100
(1754537020.633816) can0 3FF#0200010000000200
(1754537020.732901) can0 1FF#5302010002000100
(1754537020.732904) can0 2FF#0100020001000200
(1754537020.734823) can0 3FF#0100010000000100
(1754537020.832881) can0 1FF#F501020002000200
(1754537020.832882) can0 2FF#0100020001000200
(1754537020.834811) can0 3FF#0200010000000200
(1754537020.932867) can0 1FF#1C02010001000200
(1754537020.932868) can0 2FF#0200010001000100
(1754537020.934802) can0 3FF#0200010000000200
(1754537021.032872) can0 1FF#4C02010001000200
(1754537021.032873) can0 2FF#0200020001000200
(1754537021.034811) can0 3FF#0100010000000200
(1754537021.132883) can0 1FF#0302010001000200
(1754537021.132885) can0 2FF#0200010001000200
(1754537021.134789) can0 3FF#0200010000000200
(1754537021.232875) can0 1FF#4C02020002000200
(1754537021.232876) can0 2FF#0100020001000200
(1754537021.234814) can0 3FF#0100010000000200
(1754537021.332873) can0 1FF#D401010001000300
(1754537021.332873) can0 2FF#0200010001000200
(1754537021.334665) can0 3FF#0100010000000100
(1754537021.432879) can0 1FF#8702020001000200
(1754537021.432880) can0 2FF#0100020001000200
(1754537021.434812) can0 3FF#0100010000000100
(1754537021.533014) can0 1FF#EC01010001000200
(1754537021.533015) can0 2FF#0200020001000200
(1754537021.534824) can0 3FF#0200010000000200
(1754537021.632879) can0 1FF#3B02010001000300
(1754537021.632880) can0 2FF#0100020001000200
(1754537021.634800) can0 3FF#0100020000000100
(1754537021.732872) can0 1FF#0402010002000200
(1754537021.732874) can0 2FF#0200020001000100
(1754537021.734812) can0 3FF#0200010000000200
(1754537021.832876) can0 1FF#9202020002000200
(1754537021.832877) can0 2FF#0200020001000200
(1754537021.834818) can0 3FF#0100010000000100
(1754537021.932889) can0 1FF#0302010001000200
(1754537021.932890) can0 2FF#0200020001000200
(1754537021.934736) can0 3FF#0200010000000100
(1754537022.032882) can0 1FF#3102010001000200
(1754537022.032884) can0 2FF#0200010001000200
(1754537022.034732) can0 3FF#0200010000000200
(1754537022.132972) can0 1FF#E401010001000200
(1754537022.132974) can0 2FF#0200020001000200
(1754537022.134748) can0 3FF#0100010000000200
(1754537022.232897) can0 1FF#5502020002000200
(1754537022.232899) can0 2FF#0100020001000200
(1754537022.234740) can0 3FF#0100010000000100
(1754537022.333005) can0 1FF#A201010002000200
(1754537022.333006) can0 2FF#0200010001000200
(1754537022.334741) can0 3FF#0100010000000200
(1754537022.432788) can0 1FF#A702010002000200
(1754537022.432790) can0 2FF#0100020001000200
(1754537022.434743) can0 3FF#0100010000000100
(1754537022.532805) can0 1FF#B501010001000200
(1754537022.532807) can0 2FF#0100020001000200
(1754537022.534719) can0 3FF#0100010000000100
(1754537022.632791) can0 1FF#8402020002000200
(1754537022.632793) can0 2FF#0100020001000200
(1754537022.634711) can0 3FF#0100010000000100
(1754537022.732915) can0 1FF#A701010002000200
(1754537022.732916) can0 2FF#0100020001000200
(1754537022.734718) can0 3FF#0100010000000100
(1754537022.832776) can0 1FF#5B02010002000200
(1754537022.832778) can0 2FF#0200020001000200
(1754537022.834717) can0 3FF#0200010000000200
(1754537022.932802) can0 1FF#0302010002000200
(1754537022.932804) can0 2FF#0200010001000100
(1754537022.934716) can0 3FF#0200010000000200
(1754537023.032779) can0 1FF#D702010002000200
(1754537023.032781) can0 2FF#0100020002000200
(1754537023.034716) can0 3FF#0100010000000100
(1754537023.132781) can0 1FF#B601010001000200
(1754537023.132783) can0 2FF#0200020001000100
(1754537023.134723) can0 3FF#0200010000000100
(1754537023.232807) can0 1FF#6A02010001000200
(1754537023.232808) can0 2FF#0200010001000100
(1754537023.234692) can0 3FF#0100010000000200
(1754537023.332798) can0 1FF#B001010001000200
(1754537023.332800) can0 2FF#0200010001000200
(1754537023.334733) can0 3FF#0200010000000200
(1754537023.432842) can0 1FF#C702010002000200
(1754537023.432844) can0 2FF#0200020001000200
(1754537023.434748) can0 3FF#0100010000000100
(1754537023.532872) can0 1FF#9E01010001000300
(1754537023.532874) can0 2FF#0200010001000100
(1754537023.534798) can0 3FF#0100010000000200
(1754537023.632882) can0 1FF#A002010001000200
(1754537023.632884) can0 2FF#0200010001000200
(1754537023.634803) can0 3FF#0100010000000200
(1754537023.732886) can0 1FF#E401010001000200
(1754537023.732888) can0 2FF#0200010001000200
(1754537023.734745) can0 3FF#0100010000000200
(1754537023.832784) can0 1FF#FD02010002000200
(1754537023.832786) can0 2FF#0200010001000200
(1754537023.834689) can0 3FF#0100010000000200
(1754537023.932696) can0 1FF#8601010001000200
(1754537023.932697) can0 2FF#0200020002000200
(1754537023.934693) can0 3FF#0100010000000100
(1754537024.032778) can0 1FF#5E02010001000200
(1754537024.032780) can0 2FF#0200010001000200
(1754537024.034698) can0 3FF#0100010000000200
(1754537024.132893) can0 1FF#BC01010001000200
(1754537024.132895) can0 2FF#0200010001000200
(1754537024.134703) can0 3FF#0100010000000100
(1754537024.232781) can0 1FF#3A02020002000200
(1754537024.232783) can0 2FF#0100020001000200
(1754537024.234699) can0 3FF#0100010000000100
(1754537024.332761) can0 1FF#AD01010001000200
(1754537024.332762) can0 2FF#0200020001000200
(1754537024.334686) can0 3FF#0200010000000200
(1754537024.432752) can0 1FF#7C02010001000200
(1754537024.432754) can0 2FF#0200020001000200
(1754537024.434696) can0 3FF#0100010000000200
(1754537024.532765) can0 1FF#C401010001000200
(1754537024.532767) can0 2FF#0200020001000200
(1754537024.534713) can0 3FF#0100010000000100
(1754537024.632760) can0 1FF#4502020002000200
(1754537024.632761) can0 2FF#0100020001000200
(1754537024.634693) can0 3FF#0200010000000200
(1754537024.732766) can0 1FF#FD01010001000200
(1754537024.732767) can0 2FF#0200010001000200
(1754537024.734679) can0 3FF#0200010000000200
(1754537024.832739) can0 1FF#0302010002000200
(1754537024.832741) can0 2FF#0100010001000200
(1754537024.834683) can0 3FF#0100010000000200
(1754537024.932741) can0 1FF#C101010002000200
(1754537024.932743) can0 2FF#0200020001000100
(1754537024.934674) can0 3FF#0100010000000200
(1754537025.032764) can0 1FF#BF02020001000200
(1754537025.032766) can0 2FF#0200020001000200
(1754537025.034666) can0 3FF#0100020000000100
(1754537025.132759) can0 1FF#AE01020002000200
(1754537025.132760) can0 2FF#0100020001000200
(1754537025.134672) can0 3FF#0100010000000100
(1754537025.232738) can0 1FF#8D02020001000200
(1754537025.232740) can0 2FF#0200020001000200
(1754537025.234679) can0 3FF#0200000000000100
(1754537025.332728) can0 1FF#DB01010001000200
(1754537025.332730) can0 2FF#0200010001000200
(1754537025.334727) can0 3FF#0100010000000200
(1754537025.432790) can0 1FF#B502010001000200
(1754537025.432791) can0 2FF#0200020001000200
(1754537025.434702) can0 3FF#0100010000000100
(1754537025.532816) can0 1FF#B801010001000200
(1754537025.532817) can0 2FF#0100020001000200
(1754537025.534699) can0 3FF#0100010000000100
(1754537025.632690) can0 1FF#9E02020001000200
(1754537025.632691) can0 2FF#0200020001000100
(1754537025.634861) can0 3FF#0200010000000200
(1754537025.732767) can0 1FF#E501010002000200
(1754537025.732768) can0 2FF#0200020001000100
(1754537025.734732) can0 3FF#0200010000000200
(1754537025.832717) can0 1FF#9502010001000200
(1754537025.832718) can0 2FF#0200020001000200
(1754537025.834669) can0 3FF#0200010000000200
(1754537025.932723) can0 1FF#DA01010001000200
(1754537025.932724) can0 2FF#0100020001000200
(1754537025.934632) can0 3FF#0200010000000100
(1754537026.032740) can0 1FF#3002010001000200
(1754537026.032741) can0 2FF#0200010001000100
(1754537026.034674) can0 3FF#0100010000000200
(1754537026.132720) can0 1FF#F301010001000200
(1754537026.132722) can0 2FF#0200010001000100
(1754537026.134674) can0 3FF#0200010000000200
(1754537026.232742) can0 1FF#3C02010001000200
(1754537026.232743) can0 2FF#0200020001000100
(1754537026.234696) can0 3FF#0200010000000200
(1754537026.332749) can0 1FF#1B02010002000200
(1754537026.332751) can0 2FF#0100020001000100
(1754537026.334646) can0 3FF#0100010000000100
(1754537026.432722) can0 1FF#E401020002000200
(1754537026.432724) can0 2FF#0200020001000200
(1754537026.434682) can0 3FF#0100010000000200
(1754537026.532722) can0 1FF#7902010001000200
(1754537026.532724) can0 2FF#0200020001000200
(1754537026.534630) can0 3FF#0100010000000200
(1754537026.632714) can0 1FF#0302020001000200
(1754537026.632715) can0 2FF#0200020001000200
(1754537026.634629) can0 3FF#0100010000000200
(1754537026.732697) can0 1FF#2602010001000200
(1754537026.732698) can0 2FF#0200020001000100
(1754537026.734627) can0 3FF#0200010000000200
(1754537026.832710) can0 1FF#B801020002000200
(1754537026.832711) can0 2FF#0100020001000200
(1754537026.834673) can0 3FF#0100010000000100
(1754537026.932716) can0 1FF#8002010002000200
(1754537026.932718) can0 2FF#0100020001000200
(1754537026.934625) can0 3FF#0100010000000100
(1754537027.032714) can0 1FF#DF01010001000200
(1754537027.032715) can0 2FF#0200020001000200
(1754537027.034627) can0 3FF#0100010000000200
(1754537027.132683) can0 1FF#4B02010002000200
(1754537027.132685) can0 2FF#0100020001000200
(1754537027.134627) can0 3FF#0100010000000100
(1754537027.232701) can0 1FF#AD01020002000200
(1754537027.232702) can0 2FF#0100020002000300
(1754537027.234669) can0 3FF#0100010000000100
(1754537027.332728) can0 1FF#8A02010001000200
(1754537027.332729) can0 2FF#0200020001000200
(1754537027.334669) can0 3FF#0100010000000200
(1754537027.432744) can0 1FF#E101020002000200
(1754537027.432746) can0 2FF#0200010001000100
(1754537027.434673) can0 3FF#0200000000000200
(1754537027.532744) can0 1FF#0D02010001000200
(1754537027.532745) can0 2FF#0200010001000200
(1754537027.534678) can0 3FF#0200010000000200
(1754537027.632746) can0 1FF#C801010002000200
(1754537027.632748) can0 2FF#0100020001000200
(1754537027.634671) can0 3FF#0100010000000100
(1754537027.732672) can0 1FF#8002010001000200
(1754537027.732674) can0 2FF#0100020001000200
(1754537027.734610) can0 3FF#0100010000000100
(1754537027.832696) can0 1FF#C401010001000200
(1754537027.832697) can0 2FF#0200020001000200
(1754537027.834606) can0 3FF#0100010000000100
(1754537027.932691) can0 1FF#5D02010002000200
(1754537027.932692) can0 2FF#0200020001000200
(1754537027.934672) can0 3FF#0200010000000200
(1754537028.032683) can0 1FF#9001010002000200
(1754537028.032684) can0 2FF#0100020001000200
(1754537028.034604) can0 3FF#0100010000000100
(1754537028.132662) can0 1FF#BA02010002000200
(1754537028.132664) can0 2FF#0100020001000200
(1754537028.134606) can0 3FF#0100010000000100
(1754537028.232676) can0 1FF#9901010002000200
(1754537028.232677) can0 2FF#0100020001000200
(1754537028.234584) can0 3FF#0100010000000100
(1754537028.332718) can0 1FF#9F02010002000200
(1754537028.332719) can0 2FF#0100020002000200
(1754537028.334613) can0 3FF#0100010000000100
(1754537028.432675) can0 1FF#5E01010002000200
(1754537028.432677) can0 2FF#0200020001000100
(1754537028.434587) can0 3FF#0100010000000100
(1754537028.532678) can0 1FF#E602010001000200
(1754537028.532679) can0 2FF#0200010002000200
(1754537028.534564) can0 3FF#0200010000000100
(1754537028.632680) can0 1FF#8F01010001000200
(1754537028.632682) can0 2FF#0100020001000300
(1754537028.634580) can0 3FF#0200010000000100
(1754537028.732645) can0 1FF#A202010002000200
(1754537028.732646) can0 2FF#0200020001000200
(1754537028.734627) can0 3FF#0200010000000200
(1754537028.832676) can0 1FF#6601010002000200
(1754537028.832678) can0 2FF#0200020001000200
(1754537028.834563) can0 3FF#0200010000000100
(1754537028.932650) can0 1FF#EC02010002000200
(1754537028.932652) can0 2FF#0200020001000200
(1754537028.934570) can0 3FF#0200010000000200
(1754537029.032654) can0 1FF#6D01010002000200
(1754537029.032655) can0 2FF#0200020001000200
(1754537029.034589) can0 3FF#0100010000000200
(1754537029.132679) can0 1FF#A202010002000200
(1754537029.132681) can0 2FF#0200020001000100
(1754537029.134607) can0 3FF#0100010000000100
(1754537029.232705) can0 1FF#6201010002000200
(1754537029.232706) can0 2FF#0200020002000200
(1754537029.234615) can0 3FF#0100010000000100
(1754537029.332643) can0 1FF#EE02010002000100
(1754537029.332644) can0 2FF#0200020001000200
(1754537029.334644) can0 3FF#0100010000000200
(1754537029.432692) can0 1FF#6601010002000200
(1754537029.432694) can0 2FF#0100020001000200
(1754537029.434648) can0 3FF#0200010000000200
(1754537029.532712) can0 1FF#9302010002000200
(1754537029.532713) can0 2FF#0200020001000200
(1754537029.534590) can0 3FF#0100020000000200
(1754537029.632650) can0 1FF#6401010001000200
(1754537029.632652) can0 2FF#0200010001000100
(1754537029.634574) can0 3FF#0200010000000100
(1754537029.732621) can0 1FF#E502010002000200
(1754537029.732623) can0 2FF#0200020001000200
(1754537029.734581) can0 3FF#0100010000000200
(1754537029.832637) can0 1FF#5901010001000200
(1754537029.832639) can0 2FF#0200020001000100
(1754537029.834570) can0 3FF#0100010000000100
(1754537029.932659) can0 1FF#B302010001000200
(1754537029.932661) can0 2FF#0200020001000200
(1754537029.934570) can0 3FF#0100010000000100
(1754537030.032640) can0 1FF#6001010002000200
(1754537030.032642) can0 2FF#0200010001000100
(1754537030.034563) can0 3FF#0200010000000200
(1754537030.132627) can0 1FF#ED02010002000200
(1754537030.132628) can0 2FF#0200020001000200
(1754537030.134565) can0 3FF#0100010000000100
(1754537030.232631) can0 1FF#6201010002000200
(1754537030.232632) can0 2FF#0100020001000200
(1754537030.234569) can0 3FF#0100010000000100
(1754537030.332572) can0 1FF#9D02010002000200
(1754537030.332574) can0 2FF#0100020001000200
(1754537030.334551) can0 3FF#0200010000000200
(1754537030.432635) can0 1FF#6601010001000200
(1754537030.432637) can0 2FF#0200020001000100
(1754537030.434542) can0 3FF#0200010000000100
(1754537030.532642) can0 1FF#B202010001000200
(1754537030.532644) can0 2FF#0200020001000200
(1754537030.534548) can0 3FF#0100010000000200
(1754537030.632631) can0 1FF#9801010002000100
(1754537030.632633) can0 2FF#0100020001000200
(1754537030.634547) can0 3FF#0100010000000200
(1754537030.732605) can0 1FF#8702010001000300
(1754537030.732607) can0 2FF#0200010001000200
(1754537030.734513) can0 3FF#0200010000000200
(1754537030.832587) can0 1FF#9901010001000200
(1754537030.832589) can0 2FF#0100020001000200
(1754537030.834555) can0 3FF#0100010000000100
(1754537030.932607) can0 1FF#FD02010002000200
(1754537030.932609) can0 2FF#0100010001000200
(1754537030.934525) can0 3FF#0100020000000100
(1754537031.032638) can0 1FF#7D01010002000200
(1754537031.032639) can0 2FF#0200020001000200
(1754537031.034587) can0 3FF#0100010000000100
(1754537031.132753) can0 1FF#B802010001000200
(1754537031.132754) can0 2FF#0200020001000200
(1754537031.134577) can0 3FF#0100010000000100
(1754537031.232665) can0 1FF#B001010002000200
(1754537031.232667) can0 2FF#0200020001000100
(1754537031.234599) can0 3FF#0100010000000100
(1754537031.332678) can0 1FF#8F02010001000200
(1754537031.332679) can0 2FF#0200010001000200
(1754537031.334573) can0 3FF#0200010000000200
(1754537031.432550) can0 1FF#9D01010001000200
(1754537031.432552) can0 2FF#0200010001000100
(1754537031.434548) can0 3FF#0200010000000200
(1754537031.532615) can0 1FF#BB02020001000100
(1754537031.532617) can0 2FF#0100020001000200
(1754537031.534544) can0 3FF#0100010000000100
(1754537031.632618) can0 1FF#1602010002000200
(1754537031.632620) can0 2FF#0200020001000100
(1754537031.634549) can0 3FF#0100010000000200
(1754537031.732627) can0 1FF#A302020001000200
(1754537031.732629) can0 2FF#0200020001000200
(1754537031.734522) can0 3FF#0100010000000200
(1754537031.832612) can0 1FF#A601010001000200
(1754537031.832614) can0 2FF#0200010001000100
(1754537031.834538) can0 3FF#0200010000000100
(1754537031.932589) can0 1FF#B502010001000200
(1754537031.932590) can0 2FF#0200020001000200
(1754537031.934497) can0 3FF#0200010000000100
(1754537032.032589) can0 1FF#8801010002000200
(1754537032.032590) can0 2FF#0200020001000200
(1754537032.034521) can0 3FF#0100010000000100
(1754537032.132591) can0 1FF#B802010002000200
(1754537032.132592) can0 2FF#0100020001000200
(1754537032.134509) can0 3FF#0200010000000200
(1754537032.232574) can0 1FF#D801010001000200
(1754537032.232576) can0 2FF#0100020001000200
(1754537032.234493) can0 3FF#0200010000000100
(1754537032.332592) can0 1FF#5D02020001000200
(1754537032.332594) can0 2FF#0200020001000200
(1754537032.334496) can0 3FF#0100010000000100
(1754537032.432569) can0 1FF#B001010002000100
(1754537032.432571) can0 2FF#0100020001000200
(1754537032.434526) can0 3FF#0100000000000100
(1754537032.532595) can0 1FF#4802010001000200
(1754537032.532596) can0 2FF#0200010001000100
(1754537032.534528) can0 3FF#0100010000000200
(1754537032.632558) can0 1FF#F101010001000300
(1754537032.632560) can0 2FF#0200020001000200
(1754537032.634510) can0 3FF#0100010000000200
(1754537032.732579) can0 1FF#3D02020001000200
(1754537032.732580) can0 2FF#0200020001000200
(1754537032.734528) can0 3FF#0100010000000200
(1754537032.832594) can0 1FF#2E02010001000200
(1754537032.832596) can0 2FF#0200010001000100
(1754537032.834470) can0 3FF#0200010000000200
(1754537032.932596) can0 1FF#6402010001000200
(1754537032.932598) can0 2FF#0200020001000200
(1754537032.934501) can0 3FF#0100010000000200
(1754537033.032622) can0 1FF#1C02010001000200
(1754537033.032624) can0 2FF#0200020001000200
(1754537033.034545) can0 3FF#0100010000000100
(1754537033.132779) can0 1FF#EA01020002000200
(1754537033.132780) can0 2FF#0200020002000200
(1754537033.134537) can0 3FF#0100010000000100
(1754537033.232614) can0 1FF#7202010002000200
(1754537033.232616) can0 2FF#0100020001000200
(1754537033.234536) can0 3FF#0100010000000100
(1754537033.332626) can0 1FF#C601020002000200
(1754537033.332628) can0 2FF#0100020001000200
(1754537033.334562) can0 3FF#0100010000000200
(1754537033.432541) can0 1FF#9802010001000200
(1754537033.432543) can0 2FF#0200020001000200
(1754537033.434479) can0 3FF#0200010000000200
(1754537033.532555) can0 1FF#C401010001000200
