(1754539198.238103) can0 1FF#4A0D020001000200
(1754539198.238104) can0 2FF#0200020001000200
(1754539198.240016) can0 3FF#0200010000000100
(1754539198.338229) can0 1FF#180E030001000100
(1754539198.338230) can0 2FF#0200030001000200
(1754539198.340024) can0 3FF#0200000000000100
(1754539198.438109) can0 1FF#600D010001000200
(1754539198.438111) can0 2FF#0300030000000100
(1754539198.440013) can0 3FF#0100010000000100
(1754539198.538083) can0 1FF#590D010002000200
(1754539198.538084) can0 2FF#0100020001000200
(1754539198.539988) can0 3FF#0200010000000200
(1754539198.638087) can0 1FF#ED0C010001000200
(1754539198.638089) can0 2FF#0200020001000200
(1754539198.640023) can0 3FF#0100010000000200
(1754539198.738042) can0 1FF#EF0C020002000200
(1754539198.738044) can0 2FF#0200020001000200
(1754539198.739936) can0 3FF#0100010000000200
(1754539198.838021) can0 1FF#CF0C020002000200
(1754539198.838022) can0 2FF#0100020002000300
(1754539198.840009) can0 3FF#0200010000000200
(1754539198.938085) can0 1FF#B00C020001000200
(1754539198.938086) can0 2FF#0200020001000200
(1754539198.940310) can0 3FF#0100010000000100
(1754539199.038113) can0 1FF#D50C010001000200
(1754539199.038115) can0 2FF#0100020002000300
(1754539199.040054) can0 3FF#0200010000000200
(1754539199.138276) can0 1FF#440D010001000300
(1754539199.138278) can0 2FF#0200020001000100
(1754539199.140057) can0 3FF#0100010000000100
(1754539199.238117) can0 1FF#B00D010002000300
(1754539199.238119) can0 2FF#0100020001000200
(1754539199.240063) can0 3FF#0200010000000200
(1754539199.338122) can0 1FF#A30D020001000200
(1754539199.338123) can0 2FF#0100020001000200
(1754539199.340037) can0 3FF#0200010000000200
(1754539199.437949) can0 1FF#790D010001000200
(1754539199.437950) can0 2FF#0200020001000200
(1754539199.440012) can0 3FF#0200010000000200
(1754539199.538191) can0 1FF#F40C010002000300
(1754539199.538193) can0 2FF#0200020000000100
(1754539199.540015) can0 3FF#0000020000000000
(1754539199.638082) can0 1FF#970D020001000200
(1754539199.638084) can0 2FF#0300020001000200
(1754539199.639985) can0 3FF#0100010000000100
(1754539199.738081) can0 1FF#F00C010002000200
(1754539199.738082) can0 2FF#0200020001000200
(1754539199.739983) can0 3FF#0200010000000100
(1754539199.838085) can0 1FF#220D020001000100
(1754539199.838087) can0 2FF#0200020001000200
(1754539199.840005) can0 3FF#0200000000000200
(1754539199.938076) can0 1FF#9D0C010002000300
(1754539199.938078) can0 2FF#0100010002000200
(1754539199.939986) can0 3FF#0200020000000200
(1754539200.038070) can0 1FF#520D010002000300
(1754539200.038072) can0 2FF#0100010002000200
(1754539200.040000) can0 3FF#0200010000000200
(1754539200.138021) can0 1FF#C40C010002000200
(1754539200.138023) can0 2FF#0100010002000300
(1754539200.139995) can0 3FF#0300010000000200
(1754539200.238059) can0 1FF#980D010001000200
(1754539200.238060) can0 2FF#0300020001000200
(1754539200.239989) can0 3FF#0100010000000100
(1754539200.338187) can0 1FF#5D0D010001000100
(1754539200.338188) can0 2FF#0300030000000100
(1754539200.340000) can0 3FF#0100010000000000
(1754539200.438201) can0 1FF#B50D010002000200
(1754539200.438203) can0 2FF#0200020001000200
(1754539200.439978) can0 3FF#0100010000000100
(1754539200.538066) can0 1FF#5B0D010001000200
(1754539200.538067) can0 2FF#0100020001000200
(1754539200.539980) can0 3FF#0200010000000200
(1754539200.638097) can0 1FF#7C0D010002000300
(1754539200.638099) can0 2FF#0100020002000200
(1754539200.640003) can0 3FF#0100010000000200
(1754539200.738012) can0 1FF#060D010001000200
(1754539200.738014) can0 2FF#0200020001000100
(1754539200.740033) can0 3FF#0100010000000100
(1754539200.838080) can0 1FF#A60C010002000300
(1754539200.838081) can0 2FF#0100010002000200
(1754539200.840032) can0 3FF#0200010000000300
(1754539200.938107) can0 1FF#FE0C010002000300
(1754539200.938109) can0 2FF#0100020002000200
(1754539200.940009) can0 3FF#0200010000000100
(1754539201.038037) can0 1FF#100D020001000300
(1754539201.038038) can0 2FF#0200020001000200
(1754539201.040035) can0 3FF#0200010000000200
(1754539201.138130) can0 1FF#260D010002000200
(1754539201.138131) can0 2FF#0200020001000200
(1754539201.140037) can0 3FF#0100010000000100
(1754539201.238104) can0 1FF#870C010001000200
(1754539201.238106) can0 2FF#0200020001000200
(1754539201.240039) can0 3FF#0100010000000200
(1754539201.338125) can0 1FF#160D010001000200
(1754539201.338126) can0 2FF#0300020000000100
(1754539201.340037) can0 3FF#0100010000000100
(1754539201.438104) can0 1FF#F00C010002000300
(1754539201.438105) can0 2FF#0100010002000200
(1754539201.440015) can0 3FF#0200010000000200
(1754539201.538054) can0 1FF#AE0D000002000300
(1754539201.538055) can0 2FF#0200020001000100
(1754539201.539991) can0 3FF#0100010000000100
(1754539201.638050) can0 1FF#4B0D020001000300
(1754539201.638051) can0 2FF#0100010002000200
(1754539201.639969) can0 3FF#0200010000000300
(1754539201.738053) can0 1FF#FE0D020001000200
(1754539201.738054) can0 2FF#0200020002000300
(1754539201.739992) can0 3FF#0200010000000200
(1754539201.838063) can0 1FF#700D020001000100
(1754539201.838064) can0 2FF#0300030001000100
(1754539201.839995) can0 3FF#0100000000000100
(1754539201.938059) can0 1FF#7F0D010002000300
(1754539201.938060) can0 2FF#0100020001000200
(1754539201.939972) can0 3FF#0100020000000100
(1754539202.038072) can0 1FF#000D010002000300
(1754539202.038073) can0 2FF#0100010002000300
(1754539202.039997) can0 3FF#0200010000000200
(1754539202.138067) can0 1FF#4F0D020002000300
(1754539202.138068) can0 2FF#0100020002000300
(1754539202.139998) can0 3FF#0200010000000200
(1754539202.238045) can0 1FF#D90C010001000200
(1754539202.238046) can0 2FF#0200020001000200
(1754539202.239974) can0 3FF#0100010000000100
(1754539202.338040) can0 1FF#ED0C010003000400
(1754539202.338041) can0 2FF#0100010002000200
(1754539202.339952) can0 3FF#0200020000000200
(1754539202.438073) can0 1FF#B20C010003000400
(1754539202.438988) can0 2FF#0000000002000200
(1754539202.438989) can0 3FF#0200020000000200
(1754539202.538079) can0 1FF#B50C010002000200
(1754539202.538080) can0 2FF#0200020001000100
(1754539202.539978) can0 3FF#0100010000000100
(1754539202.638049) can0 1FF#EA0C010002000300
(1754539202.638050) can0 2FF#0100010002000300
(1754539202.639982) can0 3FF#0100020000000200
(1754539202.738087) can0 1FF#980C020002000300
(1754539202.738088) can0 2FF#0200010002000300
(1754539202.739984) can0 3FF#0300010000000200
(1754539202.838059) can0 1FF#360D010002000200
(1754539202.838061) can0 2FF#0200020001000200
(1754539202.839964) can0 3FF#0100010000000100
(1754539202.938051) can0 1FF#160D010002000200
(1754539202.938053) can0 2FF#0100020001000200
(1754539202.939967) can0 3FF#0200010000000100
(1754539203.038202) can0 1FF#DD0D020001000200
(1754539203.038204) can0 2FF#0200020001000100
(1754539203.039999) can0 3FF#0100010000000200
(1754539203.138085) can0 1FF#870D010002000300
(1754539203.138087) can0 2FF#0200020002000200
(1754539203.139998) can0 3FF#0200010000000200
(1754539203.238109) can0 1FF#2E0E010001000200
(1754539203.238110) can0 2FF#0300020000000100
(1754539203.240030) can0 3FF#0100010000000100
(1754539203.338090) can0 1FF#470D010002000300
(1754539203.338092) can0 2FF#0200020001000200
(1754539203.340002) can0 3FF#0100010000000100
(1754539203.438089) can0 1FF#470D010002000300
(1754539203.438091) can0 2FF#0100020001000200
(1754539203.439888) can0 3FF#0200010000000200
(1754539203.538078) can0 1FF#F00C010002000300
(1754539203.539003) can0 2FF#0100010001000100
(1754539203.539004) can0 3FF#0100020000000100
(1754539203.638073) can0 1FF#550D010002000300
(1754539203.638075) can0 2FF#0200020001000100
(1754539203.639978) can0 3FF#0100020000000200
(1754539203.738028) can0 1FF#F50C020002000300
(1754539203.738029) can0 2FF#0100020002000200
(1754539203.739950) can0 3FF#0200010000000200
(1754539203.838035) can0 1FF#DE0C020001000100
(1754539203.838036) can0 2FF#0300020001000200
(1754539203.839983) can0 3FF#0100010000000100
(1754539203.937977) can0 1FF#BC0C020001000100
(1754539203.937979) can0 2FF#0200030001000200
(1754539203.939959) can0 3FF#0100010000000100
(1754539204.038151) can0 1FF#CC0C020001000100
(1754539204.038152) can0 2FF#0300040000000100
(1754539204.039996) can0 3FF#0100010000000000
(1754539204.138056) can0 1FF#040D010002000300
(1754539204.138058) can0 2FF#0100010002000300
(1754539204.139992) can0 3FF#0200010000000300
(1754539204.238057) can0 1FF#960C020002000200
(1754539204.238058) can0 2FF#0100020001000200
(1754539204.239965) can0 3FF#0200010000000200
(1754539204.338033) can0 1FF#560D010002000200
(1754539204.338034) can0 2FF#0200020001000100
(1754539204.339976) can0 3FF#0100020000000100
(1754539204.438062) can0 1FF#260D010002000300
(1754539204.438064) can0 2FF#0100010001000200
(1754539204.439972) can0 3FF#0100020000000200
(1754539204.537990) can0 1FF#0C0E010002000300
(1754539204.537991) can0 2FF#0200020001000100
(1754539204.539969) can0 3FF#0100020000000100
(1754539204.637971) can0 1FF#2C0D010002000300
(1754539204.637972) can0 2FF#0100010001000200
(1754539204.639954) can0 3FF#0200020000000200
(1754539204.738036) can0 1FF#220E020001000200
(1754539204.738038) can0 2FF#0200020001000200
(1754539204.739944) can0 3FF#0200010000000100
(1754539204.838035) can0 1FF#110D020001000200
(1754539204.838037) can0 2FF#0300030000000100
(1754539204.839976) can0 3FF#0100010000000000
(1754539204.938160) can0 1FF#710D010002000200
(1754539204.938163) can0 2FF#0200020000000100
(1754539204.939951) can0 3FF#0100010000000100
(1754539205.038026) can0 1FF#F00C010002000300
(1754539205.038027) can0 2FF#0200020001000200
(1754539205.039955) can0 3FF#0000020000000100
(1754539205.138060) can0 1FF#0D0D010002000300
(1754539205.138062) can0 2FF#0100020001000200
(1754539205.139972) can0 3FF#0100020000000200
(1754539205.238039) can0 1FF#C00C020001000200
(1754539205.238041) can0 2FF#0200020001000200
(1754539205.239964) can0 3FF#0200010000000200
(1754539205.338082) can0 1FF#E60C010002000300
(1754539205.338083) can0 2FF#0100020002000300
(1754539205.339998) can0 3FF#0200010000000200
(1754539205.438068) can0 1FF#300D010002000200
(1754539205.438069) can0 2FF#0200030001000200
(1754539205.440017) can0 3FF#0100010000000100
(1754539205.538084) can0 1FF#390D020001000200
(1754539205.538086) can0 2FF#0200010002000300
(1754539205.539998) can0 3FF#0300000000000300
(1754539205.638076) can0 1FF#780D010002000200
(1754539205.638078) can0 2FF#0100020002000200
(1754539205.639991) can0 3FF#0200010000000100
(1754539205.738025) can0 1FF#980D020001000100
(1754539205.738026) can0 2FF#0200020001000200
(1754539205.739965) can0 3FF#0300000000000200
(1754539205.838008) can0 1FF#8B0D010002000300
(1754539205.838010) can0 2FF#0100010002000300
(1754539205.839941) can0 3FF#0200010000000200
(1754539205.938134) can0 1FF#620D020001000200
(1754539205.938136) can0 2FF#0200020001000200
(1754539205.939949) can0 3FF#0100010000000100
(1754539206.038030) can0 1FF#180D020002000200
(1754539206.038031) can0 2FF#0100020002000300
(1754539206.039972) can0 3FF#0200010000000200
(1754539206.138040) can0 1FF#980C010001000200
(1754539206.138041) can0 2FF#0300030000000100
(1754539206.139969) can0 3FF#0000010000000000
(1754539206.238041) can0 1FF#F10C010002000300
(1754539206.238043) can0 2FF#0100020001000200
(1754539206.239947) can0 3FF#0200010000000200
(1754539206.338040) can0 1FF#880C010002000200
(1754539206.338042) can0 2FF#0200020001000200
(1754539206.339951) can0 3FF#0100010000000200
(1754539206.438022) can0 1FF#F20C010002000300
(1754539206.438024) can0 2FF#0200020001000200
(1754539206.439930) can0 3FF#0100020000000100
(1754539206.538009) can0 1FF#EB0C010002000400
(1754539206.538011) can0 2FF#0100010001000200
(1754539206.539929) can0 3FF#0100020000000200
(1754539206.638018) can0 1FF#D30D020002000200
(1754539206.638019) can0 2FF#0100010002000300
(1754539206.639960) can0 3FF#0100010000000200
(1754539206.738050) can0 1FF#3C0D020001000200
(1754539206.738051) can0 2FF#0200020001000200
(1754539206.739951) can0 3FF#0100010000000200
(1754539206.838015) can0 1FF#DC0D010002000300
(1754539206.838016) can0 2FF#0100010002000300
(1754539206.839968) can0 3FF#0200010000000200
(1754539206.938136) can0 1FF#FC0C020001000200
(1754539206.938138) can0 2FF#0200020001000300
(1754539206.939959) can0 3FF#0200010000000100
(1754539207.038035) can0 1FF#5F0D020001000200
(1754539207.038036) can0 2FF#0200020001000200
(1754539207.039942) can0 3FF#0200000000000200
(1754539207.138025) can0 1FF#CF0C020001000200
(1754539207.138027) can0 2FF#0200020002000300
(1754539207.139950) can0 3FF#0200010000000200
(1754539207.238166) can0 1FF#000D010001000200
(1754539207.238167) can0 2FF#0200020001000200
(1754539207.239970) can0 3FF#0100010000000100
(1754539207.338061) can0 1FF#B60C010001000200
(1754539207.338063) can0 2FF#0200020001000200
(1754539207.339968) can0 3FF#0100010000000100
(1754539207.438046) can0 1FF#150D010002000200
(1754539207.438048) can0 2FF#0100010002000200
(1754539207.439997) can0 3FF#0200010000000200
(1754539207.538060) can0 1FF#D50C010002000200
(1754539207.538062) can0 2FF#0200010001000200
(1754539207.539971) can0 3FF#0100010000000100
(1754539207.638063) can0 1FF#890D020001000200
(1754539207.638064) can0 2FF#0200020001000200
(1754539207.639974) can0 3FF#0100010000000100
(1754539207.738058) can0 1FF#7C0D020001000100
(1754539207.738060) can0 2FF#0200020001000200
(1754539207.739975) can0 3FF#0200010000000200
(1754539207.838015) can0 1FF#A70D020002000200
(1754539207.838016) can0 2FF#0200020001000200
(1754539207.839923) can0 3FF#0100010000000200
(1754539207.938192) can0 1FF#560D010001000200
(1754539207.938194) can0 2FF#0200020001000200
(1754539207.939928) can0 3FF#0100010000000100
(1754539208.037996) can0 1FF#E10C010002000300
(1754539208.037997) can0 2FF#0100010001000200
(1754539208.039908) can0 3FF#0100020000000100
(1754539208.138025) can0 1FF#1F0D020001000100
(1754539208.138027) can0 2FF#0300030000000100
(1754539208.139990) can0 3FF#0100000000000100
(1754539208.238027) can0 1FF#C10C010002000300
(1754539208.238029) can0 2FF#0200020001000100
(1754539208.239959) can0 3FF#0100020000000100
(1754539208.337993) can0 1FF#440D010001000200
(1754539208.337995) can0 2FF#0200020001000200
(1754539208.339929) can0 3FF#0100010000000100
(1754539208.438032) can0 1FF#A60C020001000100
(1754539208.438034) can0 2FF#0300030001000100
(1754539208.439936) can0 3FF#0100010000000100
(1754539208.537997) can0 1FF#E90C010002000200
(1754539208.537999) can0 2FF#0200020000000100
(1754539208.539936) can0 3FF#0100010000000000
(1754539208.638002) can0 1FF#990C010002000200
(1754539208.638004) can0 2FF#0200020001000200
(1754539208.639912) can0 3FF#0200010000000100
(1754539208.737995) can0 1FF#9B0D010002000200
(1754539208.737996) can0 2FF#0100010002000300
(1754539208.739942) can0 3FF#0200010000000300
(1754539208.838008) can0 1FF#3D0D010002000300
(1754539208.838010) can0 2FF#0100020001000200
(1754539208.839928) can0 3FF#0100020000000100
(1754539208.937991) can0 1FF#F30D020001000200
(1754539208.937992) can0 2FF#0200020001000200
(1754539208.939913) can0 3FF#0200010000000200
(1754539209.037984) can0 1FF#450D020001000100
(1754539209.037985) can0 2FF#0300030001000200
(1754539209.039932) can0 3FF#0100010000000100
(1754539209.137957) can0 1FF#940D020001000200
(1754539209.137959) can0 2FF#0200020001000300
(1754539209.139926) can0 3FF#0200010000000100
(1754539209.237968) can0 1FF#2F0D030001000100
(1754539209.237969) can0 2FF#0200020001000200
(1754539209.239903) can0 3FF#0200000000000200
(1754539209.338014) can0 1FF#210D010002000300
(1754539209.338015) can0 2FF#0200020001000100
(1754539209.339914) can0 3FF#0100010000000100
(1754539209.438161) can0 1FF#ED0C020002000200
(1754539209.438162) can0 2FF#0200020001000200
(1754539209.439934) can0 3FF#0200010000000200
(1754539209.537995) can0 1FF#F40C010003000400
(1754539209.537997) can0 2FF#0100020001000100
(1754539209.539930) can0 3FF#0100020000000100
(1754539209.638045) can0 1FF#F90C010002000300
(1754539209.638046) can0 2FF#0200020001000200
(1754539209.639931) can0 3FF#0100020000000200
(1754539209.738045) can0 1FF#ED0C010002000200
(1754539209.738046) can0 2FF#0200020001000200
(1754539209.739956) can0 3FF#0200010000000200
(1754539209.838040) can0 1FF#240D010002000200
(1754539209.838041) can0 2FF#0200020001000200
(1754539209.839963) can0 3FF#0100020000000100
(1754539209.938054) can0 1FF#300D010002000300
(1754539209.938055) can0 2FF#0100010002000300
(1754539209.939988) can0 3FF#0200010000000200
(1754539210.038035) can0 1FF#9B0D020001000100
(1754539210.038037) can0 2FF#0300030001000200
(1754539210.039991) can0 3FF#0100000000000100
(1754539210.137989) can0 1FF#900D010002000200
(1754539210.137990) can0 2FF#0200020001000200
(1754539210.139917) can0 3FF#0100010000000100
(1754539210.237983) can0 1FF#CF0D020001000200
(1754539210.237984) can0 2FF#0200020001000300
(1754539210.239926) can0 3FF#0100010000000100
(1754539210.337987) can0 1FF#CE0C020001000200
(1754539210.337988) can0 2FF#0200020001000200
(1754539210.339892) can0 3FF#0200010000000200
(1754539210.437990) can0 1FF#760D020002000200
(1754539210.437991) can0 2FF#0200020001000200
(1754539210.439917) can0 3FF#0200010000000200
(1754539210.538014) can0 1FF#A80C020001000100
(1754539210.538015) can0 2FF#0200030001000200
(1754539210.539921) can0 3FF#0100010000000100
(1754539210.637998) can0 1FF#EE0C020001000100
(1754539210.637999) can0 2FF#0300030000000100
(1754539210.639945) can0 3FF#0100010000000100
(1754539210.738134) can0 1FF#940C020001000200
(1754539210.738136) can0 2FF#0200030001000200
(1754539210.739911) can0 3FF#0200000000000200
(1754539210.838006) can0 1FF#FC0C000003000300
(1754539210.838008) can0 2FF#0100020001000100
(1754539210.839928) can0 3FF#0100020000000100
(1754539210.938145) can0 1FF#AC0C010001000200
(1754539210.938147) can0 2FF#0200020001000100
(1754539210.939932) can0 3FF#0100010000000100
(1754539211.037991) can0 1FF#AC0D010003000300
(1754539211.037993) can0 2FF#0100010001000200
(1754539211.039915) can0 3FF#0200010000000200
(1754539211.137984) can0 1FF#B10D020001000200
(1754539211.137987) can0 2FF#0200020001000200
(1754539211.139885) can0 3FF#0100010000000100
(1754539211.238006) can0 1FF#FF0D010002000300
(1754539211.238008) can0 2FF#0200020001000200
(1754539211.239920) can0 3FF#0100020000000100
(1754539211.338006) can0 1FF#220D020001000200
(1754539211.338007) can0 2FF#0200020001000200
(1754539211.339911) can0 3FF#0200000000000200
(1754539211.437972) can0 1FF#350D010001000200
(1754539211.437974) can0 2FF#0200020000000100
(1754539211.439912) can0 3FF#0100020000000100
(1754539211.538016) can0 1FF#6F0D020002000200
(1754539211.538018) can0 2FF#0200020001000200
(1754539211.539913) can0 3FF#0100020000000200
(1754539211.638010) can0 1FF#FD0C010001000300
(1754539211.638011) can0 2FF#0200020001000200
(1754539211.639915) can0 3FF#0100010000000100
(1754539211.738027) can0 1FF#C10C010002000200
(1754539211.738028) can0 2FF#0100020002000100
(1754539211.739942) can0 3FF#0200010000000200
(1754539211.838038) can0 1FF#930C020001000100
(1754539211.838040) can0 2FF#0300030001000100
(1754539211.839989) can0 3FF#0100000000000100
(1754539211.938168) can0 1FF#040D020001000100
(1754539211.938170) can0 2FF#0200030001000200
(1754539211.939980) can0 3FF#0100000000000100
(1754539212.037995) can0 1FF#D30C020001000200
(1754539212.037996) can0 2FF#0300030000000100
(1754539212.039966) can0 3FF#0100010000000100
(1754539212.138019) can0 1FF#C50D020000000100
(1754539212.138020) can0 2FF#0300020001000200
(1754539212.139925) can0 3FF#0200000000000200
(1754539212.238011) can0 1FF#440D020002000200
(1754539212.238013) can0 2FF#0200020001000200
(1754539212.239928) can0 3FF#0100010000000100
(1754539212.337983) can0 1FF#D50D020001000100
(1754539212.337985) can0 2FF#0200030000000100
(1754539212.339900) can0 3FF#0100010000000100
(1754539212.437989) can0 1FF#030D020001000200
(1754539212.437990) can0 2FF#0300030001000100
(1754539212.439904) can0 3FF#0100010000000100
(1754539212.537964) can0 1FF#590D020001000200
(1754539212.537965) can0 2FF#0200020001000200
(1754539212.539877) can0 3FF#0200010000000200
(1754539212.637952) can0 1FF#C80C020001000200
(1754539212.637953) can0 2FF#0100020002000200
(1754539212.639907) can0 3FF#0200010000000200
(1754539212.737976) can0 1FF#400D010001000200
(1754539212.737977) can0 2FF#0300030000000100
(1754539212.739905) can0 3FF#0100010000000100
(1754539212.838001) can0 1FF#860C020002000200
(1754539212.838002) can0 2FF#0100010002000300
(1754539212.839913) can0 3FF#0200010000000200
(1754539212.937973) can0 1FF#4E0D010001000200
(1754539212.937974) can0 2FF#0200030001000200
(1754539212.939888) can0 3FF#0200010000000100
(1754539213.037988) can0 1FF#110D020001000200
(1754539213.037989) can0 2FF#0300030000000100
(1754539213.039923) can0 3FF#0000000000000000
(1754539213.137968) can0 1FF#CD0D010002000300
(1754539213.137970) can0 2FF#0200020001000200
(1754539213.139897) can0 3FF#0100010000000100
(1754539213.237972) can0 1FF#3F0D010001000200
(1754539213.237974) can0 2FF#0300020000000100
(1754539213.239898) can0 3FF#0100010000000100
(1754539213.337931) can0 1FF#6A0D020002000300
(1754539213.337933) can0 2FF#0100010001000200
(1754539213.339903) can0 3FF#0200010000000200
(1754539213.437985) can0 1FF#240D010002000300
(1754539213.437987) can0 2FF#0100010002000300
(1754539213.439903) can0 3FF#0200020000000300
(1754539213.537995) can0 1FF#270D020001000100
(1754539213.537997) can0 2FF#0300030000000100
(1754539213.539930) can0 3FF#0100010000000100
(1754539213.637966) can0 1FF#E30C020001000200
(1754539213.637967) can0 2FF#0200020001000200
(1754539213.639901) can0 3FF#0200010000000200
(1754539213.737977) can0 1FF#DC0C010002000200
(1754539213.737979) can0 2FF#0100020002000300
(1754539213.739925) can0 3FF#0100010000000200
(1754539213.838023) can0 1FF#EC0C010001000300
(1754539213.838024) can0 2FF#0300020000000100
(1754539213.839924) can0 3FF#0100010000000100
(1754539213.938027) can0 1FF#040D010002000300
(1754539213.938028) can0 2FF#0200010002000200
(1754539213.939938) can0 3FF#0200010000000200
(1754539214.038015) can0 1FF#3E0D010002000200
(1754539214.038016) can0 2FF#0200020001000200
(1754539214.039928) can0 3FF#0200010000000200
(1754539214.137998) can0 1FF#6C0D010003000300
(1754539214.137999) can0 2FF#0100010001000200
(1754539214.139910) can0 3FF#0200010000000200
(1754539214.237976) can0 1FF#C90D020001000200
(1754539214.237977) can0 2FF#0200020001000300
(1754539214.239885) can0 3FF#0200010000000200
(1754539214.337969) can0 1FF#6B0D020001000200
(1754539214.337970) can0 2FF#0200030001000200
(1754539214.339885) can0 3FF#0100000000000100
(1754539214.437946) can0 1FF#530D010002000300
(1754539214.437947) can0 2FF#0100010001000200
(1754539214.439859) can0 3FF#0100020000000100
(1754539214.537931) can0 1FF#B50C020001000200
(1754539214.537932) can0 2FF#0300030000000200
(1754539214.539918) can0 3FF#0100010000000100
(1754539214.637955) can0 1FF#550D020001000200
(1754539214.637957) can0 2FF#0200020001000200
(1754539214.639872) can0 3FF#0100010000000100
(1754539214.737964) can0 1FF#A30C010002000300
(1754539214.737967) can0 2FF#0100010001000100
(1754539214.739899) can0 3FF#0100020000000200
(1754539214.837956) can0 1FF#0E0D010001000100
(1754539214.837958) can0 2FF#0300030001000100
(1754539214.839896) can0 3FF#0100000000000100
(1754539214.937975) can0 1FF#120D020001000100
(1754539214.937977) can0 2FF#0300020001000200
(1754539214.939874) can0 3FF#0200000000000200
(1754539215.037956) can0 1FF#BC0D010002000200
(1754539215.037958) can0 2FF#0300020000000100
(1754539215.039880) can0 3FF#0100010000000100
(1754539215.137976) can0 1FF#1A0D010002000300
(1754539215.137978) can0 2FF#0200020001000100
(1754539215.139881) can0 3FF#0100020000000100
(1754539215.237961) can0 1FF#AE0D010003000300
(1754539215.237962) can0 2FF#0100010002000200
(1754539215.239880) can0 3FF#0200020000000200
(1754539215.337909) can0 1FF#FB0C010002000300
(1754539215.337910) can0 2FF#0200030000000100
(1754539215.339910) can0 3FF#0100010000000100
(1754539215.437976) can0 1FF#640D010002000300
(1754539215.438855) can0 2FF#0100010001000100
(1754539215.438856) can0 3FF#0100020000000200
(1754539215.537874) can0 1FF#D70C010002000300
(1754539215.537876) can0 2FF#0100010002000200
(1754539215.539862) can0 3FF#0200020000000300
(1754539215.637951) can0 1FF#6B0D020001000200
(1754539215.637952) can0 2FF#0200020001000200
(1754539215.639888) can0 3FF#0100010000000200
(1754539215.737948) can0 1FF#DA0C020001000200
(1754539215.737949) can0 2FF#0100020002000200
(1754539215.739860) can0 3FF#0200000000000200
(1754539215.837991) can0 1FF#460D010002000200
(1754539215.837993) can0 2FF#0200020001000100
(1754539215.839921) can0 3FF#0100020000000100
(1754539215.937983) can0 1FF#0B0D010002000300
(1754539215.937984) can0 2FF#0200020001000100
(1754539215.939922) can0 3FF#0100010000000100
(1754539216.037989) can0 1FF#A80D010002000300
(1754539216.037991) can0 2FF#0100020002000200
(1754539216.039919) can0 3FF#0100010000000200
(1754539216.137975) can0 1FF#CC0D010001000200
(1754539216.137976) can0 2FF#0300030000000200
(1754539216.139924) can0 3FF#0100010000000100
(1754539216.237985) can0 1FF#D00D010002000300
(1754539216.237986) can0 2FF#0200010001000200
(1754539216.239897) can0 3FF#0200010000000200
(1754539216.337956) can0 1FF#780D010002000300
(1754539216.337958) can0 2FF#0200020001000200
(1754539216.339870) can0 3FF#0100010000000100
(1754539216.437959) can0 1FF#C40C030000000100
(1754539216.437960) can0 2FF#0300030001000200
(1754539216.439901) can0 3FF#0100000000000100
(1754539216.537933) can0 1FF#C60C010002000200
(1754539216.537934) can0 2FF#0100020001000200
(1754539216.539870) can0 3FF#0200010000000200
(1754539216.637870) can0 1FF#800C020002000200
(1754539216.637871) can0 2FF#0200020001000200
(1754539216.639891) can0 3FF#0200010000000200
(1754539216.737906) can0 1FF#330D020001000100
(1754539216.737908) can0 2FF#0200030001000200
(1754539216.739856) can0 3FF#0200000000000100
(1754539216.837953) can0 1FF#8C0C010002000200
(1754539216.837954) can0 2FF#0100020001000200
(1754539216.839857) can0 3FF#0100010000000100
(1754539216.937884) can0 1FF#100D020002000200
(1754539216.937885) can0 2FF#0200020001000200
(1754539216.939861) can0 3FF#0100010000000100
(1754539217.037941) can0 1FF#D40C020002000200
(1754539217.037942) can0 2FF#0100010002000300
(1754539217.039896) can0 3FF#0200010000000300
(1754539217.137942) can0 1FF#D70D000003000400
(1754539217.137943) can0 2FF#0100010001000200
(1754539217.139874) can0 3FF#0100020000000200
(1754539217.237929) can0 1FF#5D0D010002000300
(1754539217.237930) can0 2FF#0200020001000200
(1754539217.239833) can0 3FF#0100020000000100
(1754539217.337954) can0 1FF#1E0E020001000100
(1754539217.337955) can0 2FF#0300020001000200
(1754539217.339859) can0 3FF#0200000000000100
(1754539217.438086) can0 1FF#140D010001000300
(1754539217.438088) can0 2FF#0300020000000100
(1754539217.439877) can0 3FF#0100010000000100
(1754539217.537938) can0 1FF#910D020002000300
(1754539217.537940) can0 2FF#0100010002000300
(1754539217.539884) can0 3FF#0200010000000200
(1754539217.637928) can0 1FF#200D030001000200
(1754539217.637930) can0 2FF#0200020002000200
(1754539217.639870) can0 3FF#0200010000000200
(1754539217.738055) can0 1FF#3D0D020001000100
(1754539217.738057) can0 2FF#0200020001000200
(1754539217.739882) can0 3FF#0100010000000100
(1754539217.837925) can0 1FF#CC0C020001000200
(1754539217.837926) can0 2FF#0200030001000100
(1754539217.839877) can0 3FF#0100010000000100
(1754539217.937954) can0 1FF#B60C020001000100
(1754539217.937956) can0 2FF#0300020001000100
(1754539217.939879) can0 3FF#0200010000000100
(1754539218.037974) can0 1FF#260D020001000200
(1754539218.037975) can0 2FF#0200020001000200
(1754539218.039876) can0 3FF#0200010000000100
(1754539218.137975) can0 1FF#F20C010002000300
(1754539218.137977) can0 2FF#0100020002000200
(1754539218.139902) can0 3FF#0200010000000200
(1754539218.238127) can0 1FF#250D010002000300
(1754539218.238130) can0 2FF#0200020001000100
(1754539218.239915) can0 3FF#0100020000000100
(1754539218.338135) can0 1FF#680D010002000200
(1754539218.338137) can0 2FF#0200020001000200
(1754539218.339917) can0 3FF#0100010000000100
(1754539218.438017) can0 1FF#CA0D020001000100
(1754539218.438019) can0 2FF#0300030001000200
(1754539218.439943) can0 3FF#0000010000000100
(1754539218.538055) can0 1FF#850D020001000200
(1754539218.538057) can0 2FF#0100010002000300
(1754539218.539871) can0 3FF#0200010000000300
(1754539218.637869) can0 1FF#B90D010002000200
(1754539218.637871) can0 2FF#0300020001000100
(1754539218.639842) can0 3FF#0100010000000100
(1754539218.737882) can0 1FF#E10C010002000300
(1754539218.737884) can0 2FF#0100010002000300
(1754539218.739843) can0 3FF#0200020000000200
(1754539218.837891) can0 1FF#690D020001000200
(1754539218.837892) can0 2FF#0200020001000200
(1754539218.839814) can0 3FF#0200010000000100
(1754539218.937938) can0 1FF#7D0C010003000300
(1754539218.937939) can0 2FF#0100010001000200
(1754539218.939840) can0 3FF#0100020000000200
(1754539219.037939) can0 1FF#060D020001000200
(1754539219.037941) can0 2FF#0300030000000100
(1754539219.039886) can0 3FF#0100010000000100
(1754539219.137938) can0 1FF#BB0C010001000200
(1754539219.137940) can0 2FF#0300030000000100
(1754539219.139869) can0 3FF#0100010000000000
(1754539219.237948) can0 1FF#F70C010001000200
(1754539219.237949) can0 2FF#0200030001000100
(1754539219.239872) can0 3FF#0100010000000100
(1754539219.337908) can0 1FF#CD0C020001000100
(1754539219.337909) can0 2FF#0300030000000100
(1754539219.339852) can0 3FF#0100010000000100
(1754539219.437922) can0 1FF#9E0D020002000200
(1754539219.437923) can0 2FF#0200020001000200
(1754539219.439863) can0 3FF#0100010000000200
(1754539219.537922) can0 1FF#AA0D020002000200
(1754539219.537923) can0 2FF#0200020002000200
(1754539219.539884) can0 3FF#0100010000000200
(1754539219.637906) can0 1FF#0D0E020001000200
(1754539219.637907) can0 2FF#0200020001000200
(1754539219.639830) can0 3FF#0100010000000100
(1754539219.737937) can0 1FF#390D010002000300
(1754539219.737938) can0 2FF#0100010002000300
(1754539219.739859) can0 3FF#0200020000000200
(1754539219.837941) can0 1FF#480D010002000300
(1754539219.837942) can0 2FF#0100010001000200
(1754539219.839864) can0 3FF#0100020000000200
(1754539219.938075) can0 1FF#520D010002000200
(1754539219.938077) can0 2FF#0100020001000200
(1754539219.939847) can0 3FF#0100010000000200
(1754539220.037950) can0 1FF#060D010002000300
(1754539220.037951) can0 2FF#0200010001000300
(1754539220.039858) can0 3FF#0200010000000200
(1754539220.137927) can0 1FF#EB0C010001000200
(1754539220.137929) can0 2FF#0200030000000100
(1754539220.139867) can0 3FF#0100010000000100
(1754539220.237937) can0 1FF#940C020001000100
(1754539220.237939) can0 2FF#0300030001000200
(1754539220.239887) can0 3FF#0100000000000100
(1754539220.338104) can0 1FF#E80C010002000300
(1754539220.338106) can0 2FF#0200020001000200
(1754539220.339877) can0 3FF#0200010000000100
(1754539220.437997) can0 1FF#F00C020001000200
(1754539220.437998) can0 2FF#0200030001000200
(1754539220.439895) can0 3FF#0100010000000100
(1754539220.537902) can0 1FF#A80D010001000200
(1754539220.537904) can0 2FF#0200020001000200
(1754539220.539848) can0 3FF#0100010000000200
(1754539220.637917) can0 1FF#510D010002000300
(1754539220.637919) can0 2FF#0200020001000100
(1754539220.639855) can0 3FF#0100020000000100
(1754539220.737920) can0 1FF#B40D010002000300
(1754539220.737921) can0 2FF#0100010002000200
(1754539220.739820) can0 3FF#0200010000000200
(1754539220.837928) can0 1FF#E60C020001000100
(1754539220.837929) can0 2FF#0300030001000200
(1754539220.839852) can0 3FF#0100010000000100
(1754539220.937925) can0 1FF#580D010002000300
(1754539220.937926) can0 2FF#0100020001000100
(1754539220.939840) can0 3FF#0100020000000100
(1754539221.037918) can0 1FF#A30C020001000200
(1754539221.037918) can0 2FF#0200020001000200
(1754539221.039817) can0 3FF#0100010000000100
(1754539221.137892) can0 1FF#EF0C010002000300
(1754539221.137893) can0 2FF#0100010002000200
(1754539221.139826) can0 3FF#0200020000000300
(1754539221.238026) can0 1FF#C80C010002000300
(1754539221.238027) can0 2FF#0100010001000300
(1754539221.239844) can0 3FF#0200020000000200
(1754539221.337929) can0 1FF#700D020002000200
(1754539221.337930) can0 2FF#0200020002000300
(1754539221.339845) can0 3FF#0200010000000200
(1754539221.437897) can0 1FF#690D010002000300
(1754539221.437898) can0 2FF#0100020001000100
(1754539221.439832) can0 3FF#0100020000000200
(1754539221.537927) can0 1FF#100E010002000300
(1754539221.537929) can0 2FF#0200020001000200
(1754539221.539834) can0 3FF#0100010000000100
(1754539221.637883) can0 1FF#610D010002000200
(1754539221.637884) can0 2FF#0100010001000300
(1754539221.639839) can0 3FF#0200010000000200
(1754539221.737894) can0 1FF#6E0D020001000300
(1754539221.737895) can0 2FF#0200020001000200
(1754539221.739831) can0 3FF#0100010000000100
(1754539221.837900) can0 1FF#FE0C010002000200
(1754539221.837902) can0 2FF#0200020001000100
(1754539221.839851) can0 3FF#0200010000000200
(1754539221.937921) can0 1FF#100D010002000300
(1754539221.937922) can0 2FF#0200020001000200
(1754539221.939847) can0 3FF#0100020000000100
(1754539222.037915) can0 1FF#A70C010002000200
(1754539222.037916) can0 2FF#0200010001000200
(1754539222.039841) can0 3FF#0200020000000200
(1754539222.137966) can0 1FF#DA0C010002000200
(1754539222.137967) can0 2FF#0200020001000200
(1754539222.139876) can0 3FF#0100010000000200
(1754539222.237970) can0 1FF#150D020001000100
(1754539222.237971) can0 2FF#0200020001000200
(1754539222.239891) can0 3FF#0200010000000200
(1754539222.337942) can0 1FF#680D010002000300
(1754539222.337943) can0 2FF#0200020001000200
(1754539222.339846) can0 3FF#0100010000000100
(1754539222.437941) can0 1FF#6E0D020002000300
(1754539222.437942) can0 2FF#0100010002000200
(1754539222.439890) can0 3FF#0200010000000200
(1754539222.537909) can0 1FF#970D010002000300
(1754539222.537910) can0 2FF#0200020001000200
(1754539222.539850) can0 3FF#0100010000000100
(1754539222.637915) can0 1FF#760D010001000200
(1754539222.637916) can0 2FF#0200020001000200
(1754539222.639858) can0 3FF#0200010000000100
(1754539222.737925) can0 1FF#480D010002000300
(1754539222.737926) can0 2FF#0200020001000100
(1754539222.739858) can0 3FF#0100010000000100
(1754539222.837923) can0 1FF#570D010002000300
(1754539222.837925) can0 2FF#0100020001000200
(1754539222.839858) can0 3FF#0100020000000100
(1754539222.937860) can0 1FF#AA0C020001000100
(1754539222.937861) can0 2FF#0300030000000100
(1754539222.939994) can0 3FF#0100010000000100
(1754539223.037920) can0 1FF#DE0C020001000200
(1754539223.037922) can0 2FF#0200010001000200
(1754539223.039861) can0 3FF#0200010000000200
(1754539223.137927) can0 1FF#970C020002000200
(1754539223.137928) can0 2FF#0100010002000200
(1754539223.139863) can0 3FF#0200010000000200
(1754539223.237924) can0 1FF#390D010002000200
(1754539223.237925) can0 2FF#0100020001000200
(1754539223.239947) can0 3FF#0200010000000200
(1754539223.337930) can0 1FF#110D010002000300
(1754539223.337931) can0 2FF#0100010002000200
(1754539223.339870) can0 3FF#0200010000000200
(1754539223.437931) can0 1FF#A80D020001000100
(1754539223.437932) can0 2FF#0200030001000200
(1754539223.439865) can0 3FF#0100000000000100
(1754539223.537969) can0 1FF#290D030001000100
(1754539223.537970) can0 2FF#0200030001000200
(1754539223.539867) can0 3FF#0200000000000100
(1754539223.637950) can0 1FF#060E010002000200
(1754539223.637952) can0 2FF#0200020001000100
(1754539223.639871) can0 3FF#0100010000000100
(1754539223.737936) can0 1FF#5D0D020001000200
(1754539223.737938) can0 2FF#0200020002000200
(1754539223.739791) can0 3FF#0200000000000200
(1754539223.837917) can0 1FF#9C0D020001000200
(1754539223.837918) can0 2FF#0200030001000200
(1754539223.839786) can0 3FF#0100010000000100
(1754539223.937943) can0 1FF#DD0C020001000200
(1754539223.937944) can0 2FF#0200020001000200
(1754539223.939792) can0 3FF#0200010000000200
(1754539224.037949) can0 1FF#090D020002000200
(1754539224.037950) can0 2FF#0200020002000200
(1754539224.039881) can0 3FF#0200010000000200
(1754539224.137954) can0 1FF#070D020001000200
(1754539224.137956) can0 2FF#0200020001000200
(1754539224.139880) can0 3FF#0100010000000200
(1754539224.237938) can0 1FF#320D010002000200
(1754539224.237939) can0 2FF#0200020001000100
(1754539224.239881) can0 3FF#0100010000000100
(1754539224.337951) can0 1FF#D60C010002000300
(1754539224.337952) can0 2FF#0100010001000200
(1754539224.339887) can0 3FF#0200020000000200
(1754539224.437948) can0 1FF#B70C010002000300
(1754539224.437949) can0 2FF#0100010002000200
(1754539224.439881) can0 3FF#0200010000000200
(1754539224.537846) can0 1FF#D20C020001000200
(1754539224.537847) can0 2FF#0200020001000200
(1754539224.539688) can0 3FF#0200010000000200
(1754539224.637872) can0 1FF#9C0D010001000200
(1754539224.637873) can0 2FF#0200020001000200
(1754539224.639790) can0 3FF#0100010000000100
(1754539224.737955) can0 1FF#F40D020001000200
(1754539224.737957) can0 2FF#0200020001000100
(1754539224.739810) can0 3FF#0200010000000100
(1754539224.837877) can0 1FF#540D020001000200
(1754539224.837878) can0 2FF#0200020001000200
(1754539224.839785) can0 3FF#0200000000000200
(1754539224.937822) can0 1FF#A10D010003000300
(1754539224.937823) can0 2FF#0000010002000200
(1754539224.939771) can0 3FF#0200010000000200
(1754539225.037864) can0 1FF#DE0C020002000200
(1754539225.037866) can0 2FF#0100010003000300
(1754539225.039815) can0 3FF#0300010000000300
(1754539225.137844) can0 1FF#5B0D010002000300
(1754539225.137845) can0 2FF#0200020001000200
(1754539225.139770) can0 3FF#0100020000000100
(1754539225.237881) can0 1FF#A60C010002000300
(1754539225.237883) can0 2FF#0100010002000200
(1754539225.239818) can0 3FF#0200020000000200
(1754539225.337881) can0 1FF#480D020002000200
(1754539225.337883) can0 2FF#0100020002000200
(1754539225.339800) can0 3FF#0200010000000200
(1754539225.437993) can0 1FF#A40C010001000200
(1754539225.437995) can0 2FF#0200020001000200
(1754539225.439789) can0 3FF#0200010000000100
(1754539225.537890) can0 1FF#FB0C010002000300
(1754539225.537892) can0 2FF#0200020001000200
(1754539225.539804) can0 3FF#0100010000000100
(1754539225.637808) can0 1FF#D70C020001000200
(1754539225.637809) can0 2FF#0200020001000100
(1754539225.639807) can0 3FF#0200010000000200
(1754539225.737786) can0 1FF#970D010002000200
(1754539225.737787) can0 2FF#0100020001000300
(1754539225.739772) can0 3FF#0200010000000200
(1754539225.837876) can0 1FF#390D010003000400
(1754539225.837878) can0 2FF#0100010001000200
(1754539225.839783) can0 3FF#0100020000000200
(1754539225.938018) can0 1FF#C00D020001000100
(1754539225.938020) can0 2FF#0300030001000100
(1754539225.939833) can0 3FF#0100000000000100
(1754539226.037873) can0 1FF#CC0D020001000200
(1754539226.037874) can0 2FF#0200020001000200
(1754539226.039782) can0 3FF#0100010000000100
(1754539226.137811) can0 1FF#CE0D010002000300
(1754539226.137812) can0 2FF#0100010001000200
(1754539226.139781) can0 3FF#0200010000000200
(1754539226.237894) can0 1FF#570D020001000200
(1754539226.237895) can0 2FF#0200020001000300
(1754539226.239813) can0 3FF#0200010000000100
(1754539226.337991) can0 1FF#DF0C010002000200
(1754539226.337992) can0 2FF#0200020001000200
(1754539226.339813) can0 3FF#0200010000000100
(1754539226.437920) can0 1FF#3E0D020001000200
(1754539226.437922) can0 2FF#0200020001000200
(1754539226.439840) can0 3FF#0200010000000100
(1754539226.537972) can0 1FF#B00C010001000300
(1754539226.537974) can0 2FF#0200020001000300
(1754539226.539838) can0 3FF#0200010000000200
(1754539226.637876) can0 1FF#590D010002000300
(1754539226.637878) can0 2FF#0100010002000300
(1754539226.639822) can0 3FF#0300010000000300
(1754539226.737869) can0 1FF#8B0C000002000300
(1754539226.737871) can0 2FF#0200020001000100
(1754539226.739795) can0 3FF#0100020000000100
(1754539226.837878) can0 1FF#360D020001000200
(1754539226.837879) can0 2FF#0200020001000200
(1754539226.839795) can0 3FF#0200010000000200
(1754539226.937879) can0 1FF#BB0C010002000300
(1754539226.937880) can0 2FF#0200020001000200
(1754539226.939778) can0 3FF#0200010000000200
(1754539227.037871) can0 1FF#880D010002000200
(1754539227.037873) can0 2FF#0200020001000200
(1754539227.039777) can0 3FF#0100010000000100
(1754539227.137868) can0 1FF#3F0D010002000300
(1754539227.137869) can0 2FF#0100010002000300
(1754539227.139777) can0 3FF#0200020000000200
(1754539227.237866) can0 1FF#0B0E010002000300
(1754539227.237867) can0 2FF#0100020002000300
(1754539227.239774) can0 3FF#0100020000000100
(1754539227.337873) can0 1FF#450D010001000200
(1754539227.337875) can0 2FF#0200020002000200
(1754539227.339781) can0 3FF#0200010000000200
(1754539227.437883) can0 1FF#550D020002000200
(1754539227.437885) can0 2FF#0200020001000200
(1754539227.439784) can0 3FF#0200010000000200
(1754539227.537813) can0 1FF#0E0D010003000400
(1754539227.537815) can0 2FF#0100010001000200
(1754539227.539783) can0 3FF#0100020000000200
(1754539227.637859) can0 1FF#220D020001000200
(1754539227.637860) can0 2FF#0200010002000300
(1754539227.639785) can0 3FF#0200010000000200
(1754539227.737851) can0 1FF#C40C010002000200
(1754539227.737852) can0 2FF#0100020002000200
(1754539227.739787) can0 3FF#0200010000000200
(1754539227.837854) can0 1FF#C60C020002000200
(1754539227.837855) can0 2FF#0100010002000300
(1754539227.839792) can0 3FF#0200010000000300
(1754539227.937859) can0 1FF#F60C020001000200
(1754539227.937861) can0 2FF#0200020001000200
(1754539227.939772) can0 3FF#0200010000000200
(1754539228.037834) can0 1FF#2F0D020001000200
(1754539228.037836) can0 2FF#0200020002000200
(1754539228.039773) can0 3FF#0200010000000200
(1754539228.137860) can0 1FF#490D010002000200
(1754539228.137862) can0 2FF#0200020001000200
(1754539228.139745) can0 3FF#0200010000000100
(1754539228.237889) can0 1FF#490D020002000200
(1754539228.237891) can0 2FF#0200020001000200
(1754539228.239797) can0 3FF#0200010000000200
(1754539228.337819) can0 1FF#2D0E010002000300
(1754539228.337820) can0 2FF#0200020001000100
(1754539228.339819) can0 3FF#0100010000000100
(1754539228.437893) can0 1FF#730D020001000200
(1754539228.437894) can0 2FF#0200020001000200
(1754539228.439800) can0 3FF#0100010000000100
(1754539228.537827) can0 1FF#AA0D010002000300
(1754539228.537828) can0 2FF#0100020002000200
(1754539228.539825) can0 3FF#0100010000000200
(1754539228.637894) can0 1FF#E20C010002000300
(1754539228.637896) can0 2FF#0200020001000200
(1754539228.639807) can0 3FF#0200010000000200
(1754539228.737846) can0 1FF#330D020001000200
(1754539228.737847) can0 2FF#0200020001000300
(1754539228.739781) can0 3FF#0200010000000200
(1754539228.837832) can0 1FF#AA0C010002000300
(1754539228.837834) can0 2FF#0100010001000100
(1754539228.839778) can0 3FF#0200010000000200
(1754539228.937997) can0 1FF#280D010002000200
(1754539228.937998) can0 2FF#0200020001000200
(1754539228.939771) can0 3FF#0200010000000200
(1754539229.037857) can0 1FF#A40C010001000200
(1754539229.037859) can0 2FF#0200020001000200
(1754539229.039767) can0 3FF#0200000000000100
(1754539229.137856) can0 1FF#AA0D020000000100
(1754539229.137857) can0 2FF#0300030000000100
(1754539229.139808) can0 3FF#0100000000000100
(1754539229.237855) can0 1FF#320D020002000200
(1754539229.237856) can0 2FF#0100020001000200
(1754539229.239784) can0 3FF#0200010000000200
(1754539229.337833) can0 1FF#FB0D020001000200
(1754539229.337835) can0 2FF#0200020001000100
(1754539229.339793) can0 3FF#0100010000000100
(1754539229.437944) can0 1FF#6F0D020001000200
(1754539229.437946) can0 2FF#0200020002000200
(1754539229.439775) can0 3FF#0200000000000200
(1754539229.537824) can0 1FF#900D010001000200
(1754539229.537826) can0 2FF#0300030001000100
(1754539229.539796) can0 3FF#0100010000000100
(1754539229.637844) can0 1FF#F10C020001000200
(1754539229.637845) can0 2FF#0300030000000100
(1754539229.639774) can0 3FF#0000010000000100
(1754539229.737819) can0 1FF#0C0D010002000300
(1754539229.737820) can0 2FF#0100020001000200
(1754539229.739775) can0 3FF#0200020000000100
(1754539229.837875) can0 1FF#E20C010001000200
(1754539229.837877) can0 2FF#0300030000000100
(1754539229.839805) can0 3FF#0100010000000000
(1754539229.937882) can0 1FF#1B0D020001000100
(1754539229.937884) can0 2FF#0200030001000200
(1754539229.939778) can0 3FF#0100010000000100
(1754539230.037846) can0 1FF#CB0C010001000200
(1754539230.037848) can0 2FF#0200020001000200
(1754539230.039752) can0 3FF#0200010000000200
(1754539230.137834) can0 1FF#2A0D010002000300
(1754539230.137836) can0 2FF#0200020001000200
(1754539230.139780) can0 3FF#0100010000000200
(1754539230.237895) can0 1FF#890D010002000200
(1754539230.237897) can0 2FF#0200020001000200
(1754539230.239781) can0 3FF#0200010000000200
(1754539230.337857) can0 1FF#6D0D010002000200
(1754539230.337859) can0 2FF#0200020001000200
(1754539230.339782) can0 3FF#0100020000000200
(1754539230.437895) can0 1FF#E40D010002000200
(1754539230.437897) can0 2FF#0100020001000200
(1754539230.439810) can0 3FF#0100020000000100
(1754539230.537886) can0 1FF#2D0D020001000200
(1754539230.537887) can0 2FF#0200020001000200
(1754539230.539795) can0 3FF#0200010000000200
(1754539230.637985) can0 1FF#B90D020002000200
(1754539230.637987) can0 2FF#0100010002000300
(1754539230.639819) can0 3FF#0200010000000200
(1754539230.737956) can0 1FF#290D020001000200
(1754539230.737958) can0 2FF#0200020001000200
(1754539230.739770) can0 3FF#0100010000000100
(1754539230.837840) can0 1FF#740D010001000200
(1754539230.837841) can0 2FF#0200020002000200
(1754539230.839744) can0 3FF#0200010000000100
(1754539230.937833) can0 1FF#EB0C020002000200
(1754539230.937835) can0 2FF#0200020001000200
(1754539230.939746) can0 3FF#0200010000000200
(1754539231.037831) can0 1FF#570D020002000200
(1754539231.037833) can0 2FF#0100020001000200
(1754539231.039770) can0 3FF#0200010000000200
(1754539231.137788) can0 1FF#960C020001000200
(1754539231.137789) can0 2FF#0200020001000200
(1754539231.139757) can0 3FF#0200010000000200
(1754539231.237837) can0 1FF#060D010002000200
(1754539231.237839) can0 2FF#0100010001000300
(1754539231.239771) can0 3FF#0200010000000200
(1754539231.337784) can0 1FF#F70C010001000200
(1754539231.337786) can0 2FF#0200030001000100
(1754539231.339773) can0 3FF#0100010000000100
(1754539231.437773) can0 1FF#3E0D010002000300
(1754539231.437774) can0 2FF#0200020001000200
(1754539231.439776) can0 3FF#0100010000000200
(1754539231.537684) can0 1FF#450D020001000200
(1754539231.537685) can0 2FF#0200030001000100
(1754539231.539752) can0 3FF#0100010000000100
(1754539231.637964) can0 1FF#C80D020001000200
(1754539231.637966) can0 2FF#0200020001000100
(1754539231.639710) can0 3FF#0100010000000100
(1754539231.737842) can0 1FF#840D010002000200
(1754539231.737843) can0 2FF#0100020001000200
(1754539231.739752) can0 3FF#0200010000000200
(1754539231.837826) can0 1FF#6E0D010002000300
(1754539231.837828) can0 2FF#0100010001000300
(1754539231.839760) can0 3FF#0200010000000200
(1754539231.937830) can0 1FF#020D010003000300
(1754539231.937832) can0 2FF#0100020001000200
(1754539231.939742) can0 3FF#0100020000000200
(1754539232.037968) can0 1FF#F10C020001000200
(1754539232.037970) can0 2FF#0200010002000200
(1754539232.039744) can0 3FF#0200010000000200
(1754539232.137842) can0 1FF#E20C010002000200
(1754539232.137844) can0 2FF#0200020001000200
(1754539232.139738) can0 3FF#0200020000000200
(1754539232.237851) can0 1FF#EB0C010002000200
(1754539232.237853) can0 2FF#0200020001000100
(1754539232.239793) can0 3FF#0100010000000200
(1754539232.337888) can0 1FF#020D010001000100
(1754539232.337890) can0 2FF#0200030000000100
(1754539232.339824) can0 3FF#0100010000000100
(1754539232.438021) can0 1FF#C90C010001000100
(1754539232.438023) can0 2FF#0200030001000200
(1754539232.439773) can0 3FF#0100010000000100
(1754539232.537874) can0 1FF#590D010002000200
(1754539232.537876) can0 2FF#0200020001000200
(1754539232.539774) can0 3FF#0100010000000100
(1754539232.637847) can0 1FF#7F0D010002000300
(1754539232.637849) can0 2FF#0100010002000200
(1754539232.639744) can0 3FF#0200020000000200
(1754539232.737840) can0 1FF#3B0E020001000200
(1754539232.737842) can0 2FF#0200020001000300
(1754539232.739747) can0 3FF#0200010000000200
(1754539232.837845) can0 1FF#F40C020001000100
(1754539232.837846) can0 2FF#0300030001000100
(1754539232.839783) can0 3FF#0100000000000100
(1754539232.937709) can0 1FF#600D020001000200
(1754539232.937710) can0 2FF#0200020001000200
(1754539232.939643) can0 3FF#0100010000000100
(1754539233.037857) can0 1FF#9F0C020001000100
(1754539233.037859) can0 2FF#0300030000000100
(1754539233.039814) can0 3FF#0100000000000100
(1754539233.137826) can0 1FF#330D020002000200
(1754539233.137828) can0 2FF#0200020001000200
(1754539233.139757) can0 3FF#0100010000000100
(1754539233.237833) can0 1FF#820C010001000200
(1754539233.237835) can0 2FF#0200020001000200
(1754539233.239728) can0 3FF#0100010000000100
(1754539233.337828) can0 1FF#020D010002000200
(1754539233.337830) can0 2FF#0100020001000200
(1754539233.339734) can0 3FF#0100010000000100
(1754539233.437812) can0 1FF#E30C020002000300
(1754539233.437814) can0 2FF#0100010002000300
(1754539233.439755) can0 3FF#0200010000000200
(1754539233.537782) can0 1FF#D30D010001000300
(1754539233.537783) can0 2FF#0200020001000200
(1754539233.539738) can0 3FF#0100010000000100
(1754539233.637830) can0 1FF#880D010001000200
(1754539233.637831) can0 2FF#0200020001000200
(1754539233.639734) can0 3FF#0100010000000100
(1754539233.737812) can0 1FF#C80D020001000200
(1754539233.737814) can0 2FF#0200020001000200
(1754539233.739743) can0 3FF#0100010000000100
(1754539233.837843) can0 1FF#1A0D020002000200
(1754539233.837845) can0 2FF#0200020001000100
(1754539233.839766) can0 3FF#0100010000000100
(1754539233.937818) can0 1FF#1A0D020001000300
(1754539233.937819) can0 2FF#0200020001000200
(1754539233.939718) can0 3FF#0200010000000100
(1754539234.037933) can0 1FF#E70C010002000200
(1754539234.037936) can0 2FF#0200020001000200
(1754539234.039722) can0 3FF#0200010000000200
(1754539234.137873) can0 1FF#5F0D010001000200
(1754539234.137875) can0 2FF#0200020001000200
(1754539234.139776) can0 3FF#0100010000000100
(1754539234.238020) can0 1FF#E50C020001000200
(1754539234.238021) can0 2FF#0200030001000200
(1754539234.239764) can0 3FF#0200000000000100
(1754539234.337876) can0 1FF#C40C010002000300
(1754539234.337877) can0 2FF#0100010002000200
(1754539234.339789) can0 3FF#0200020000000200
(1754539234.437863) can0 1FF#000D010002000200
(1754539234.437865) can0 2FF#0200020001000200
(1754539234.439780) can0 3FF#0100010000000100
(1754539234.537831) can0 1FF#870D020002000200
(1754539234.537832) can0 2FF#0100010002000300
(1754539234.539765) can0 3FF#0200010000000300
(1754539234.637804) can0 1FF#E50D020001000200
(1754539234.637805) can0 2FF#0200020001000200
(1754539234.639712) can0 3FF#0100010000000200
(1754539234.737825) can0 1FF#360D020002000200
(1754539234.737826) can0 2FF#0100020001000300
(1754539234.739734) can0 3FF#0200010000000200
(1754539234.837805) can0 1FF#6F0D010001000200
(1754539234.837807) can0 2FF#0200020001000200
(1754539234.839720) can0 3FF#0100010000000100
(1754539234.937916) can0 1FF#DF0C020001000200
(1754539234.937918) can0 2FF#0200010002000200
(1754539234.939721) can0 3FF#0200010000000200
(1754539235.037964) can0 1FF#4E0D010001000200
(1754539235.037966) can0 2FF#0200010001000200
(1754539235.039721) can0 3FF#0100020000000200
(1754539235.137933) can0 1FF#C50C020002000200
(1754539235.137936) can0 2FF#0100010002000200
(1754539235.139751) can0 3FF#0200010000000300
(1754539235.237816) can0 1FF#090D010001000200
(1754539235.237817) can0 2FF#0300030001000100
(1754539235.239751) can0 3FF#0100010000000100
(1754539235.337923) can0 1FF#ED0C010001000200
(1754539235.337925) can0 2FF#0200020001000200
(1754539235.339725) can0 3FF#0200010000000200
(1754539235.437827) can0 1FF#5B0D010001000100
(1754539235.437829) can0 2FF#0300030000000100
(1754539235.439754) can0 3FF#0100010000000000
(1754539235.537827) can0 1FF#150D010002000300
(1754539235.537828) can0 2FF#0100010002000300
(1754539235.539728) can0 3FF#0200020000000200
(1754539235.637795) can0 1FF#CD0D010002000300
(1754539235.637797) can0 2FF#0100010001000200
(1754539235.639704) can0 3FF#0100020000000200
(1754539235.737917) can0 1FF#620D010002000300
(1754539235.737919) can0 2FF#0100010001000200
(1754539235.739728) can0 3FF#0100010000000200
(1754539235.837776) can0 1FF#9F0D010001000200
(1754539235.837777) can0 2FF#0200020001000100
(1754539235.839730) can0 3FF#0100010000000100
(1754539235.937806) can0 1FF#400D020001000200
(1754539235.937808) can0 2FF#0200020001000200
(1754539235.939732) can0 3FF#0100010000000200
(1754539236.037832) can0 1FF#680D020002000300
(1754539236.037834) can0 2FF#0100010002000200
(1754539236.039737) can0 3FF#0200010000000300
(1754539236.137867) can0 1FF#D60C020001000200
(1754539236.137869) can0 2FF#0200030001000200
(1754539236.139793) can0 3FF#0100000000000100
(1754539236.237864) can0 1FF#E00C010002000200
(1754539236.237866) can0 2FF#0200030001000100
(1754539236.239798) can0 3FF#0100010000000100
(1754539236.337848) can0 1FF#BA0C020001000200
(1754539236.337850) can0 2FF#0200020001000300
(1754539236.339763) can0 3FF#0200000000000200
(1754539236.437784) can0 1FF#DC0C010002000200
(1754539236.437785) can0 2FF#0200020001000200
(1754539236.439766) can0 3FF#0100020000000200
(1754539236.537806) can0 1FF#250D010001000200
(1754539236.537807) can0 2FF#0200020001000200
(1754539236.539714) can0 3FF#0200010000000200
(1754539236.637814) can0 1FF#720D010002000300
(1754539236.637815) can0 2FF#0200020001000200
(1754539236.639712) can0 3FF#0100010000000100
(1754539236.737804) can0 1FF#620D010001000100
(1754539236.737806) can0 2FF#0200030001000100
(1754539236.739715) can0 3FF#0100010000000100
(1754539236.837793) can0 1FF#7C0D010002000300
(1754539236.837794) can0 2FF#0200020001000200
(1754539236.839710) can0 3FF#0100020000000100
(1754539236.937791) can0 1FF#FA0D020001000100
(1754539236.937792) can0 2FF#0300030001000100
(1754539236.939997) can0 3FF#0100010000000100
(1754539237.037779) can0 1FF#DB0C010002000200
(1754539237.037780) can0 2FF#0200020000000100
(1754539237.039718) can0 3FF#0100010000000100
(1754539237.137780) can0 1FF#770D020001000200
(1754539237.137781) can0 2FF#0300030001000200
(1754539237.139730) can0 3FF#0100000000000100
(1754539237.237795) can0 1FF#9C0C020002000200
(1754539237.237796) can0 2FF#0200020001000100
(1754539237.239727) can0 3FF#0200010000000100
(1754539237.337769) can0 1FF#4B0D010002000300
(1754539237.337771) can0 2FF#0100010001000200
(1754539237.339701) can0 3FF#0100010000000200
(1754539237.437794) can0 1FF#A30C020001000200
(1754539237.437796) can0 2FF#0200020001000200
(1754539237.439731) can0 3FF#0100010000000200
(1754539237.537755) can0 1FF#4A0D010002000300
(1754539237.537756) can0 2FF#0100020001000200
(1754539237.539719) can0 3FF#0200010000000100
(1754539237.637771) can0 1FF#AF0C020001000100
(1754539237.637773) can0 2FF#0200020001000200
(1754539237.639707) can0 3FF#0100010000000200
(1754539237.737803) can0 1FF#660D010002000200
(1754539237.737804) can0 2FF#0300030000000100
(1754539237.739709) can0 3FF#0000010000000000
(1754539237.837795) can0 1FF#C00D010002000200
(1754539237.837796) can0 2FF#0100020002000200
(1754539237.839709) can0 3FF#0100010000000200
(1754539237.937760) can0 1FF#CF0D020002000200
(1754539237.937762) can0 2FF#0200030000000200
(1754539237.939721) can0 3FF#0100010000000100
(1754539238.037811) can0 1FF#CA0D010002000300
(1754539238.037813) can0 2FF#0200020001000200
(1754539238.039719) can0 3FF#0200010000000200
(1754539238.137839) can0 1FF#7E0D020001000200
(1754539238.137840) can0 2FF#0200020001000200
(1754539238.139741) can0 3FF#0200010000000100
(1754539238.237807) can0 1FF#B50D020001000200
(1754539238.237809) can0 2FF#0200020001000200
(1754539238.239722) can0 3FF#0200010000000100
(1754539238.337813) can0 1FF#310D020001000200
(1754539238.337814) can0 2FF#0200020001000300
(1754539238.339747) can0 3FF#0200010000000200
(1754539238.437840) can0 1FF#2D0D010002000200
(1754539238.437842) can0 2FF#0200020001000200
(1754539238.439750) can0 3FF#0100010000000100
(1754539238.537780) can0 1FF#760C020001000200
(1754539238.537782) can0 2FF#0200020001000200
(1754539238.539696) can0 3FF#0100010000000200
(1754539238.637769) can0 1FF#1B0D010002000200
(1754539238.637770) can0 2FF#0200020001000200
(1754539238.639706) can0 3FF#0100010000000200
(1754539238.737772) can0 1FF#5C0C020001000200
(1754539238.737773) can0 2FF#0200020001000200
(1754539238.739696) can0 3FF#0100010000000100
(1754539238.837799) can0 1FF#240D010001000200
(1754539238.837801) can0 2FF#0200020001000200
(1754539238.839706) can0 3FF#0100010000000100
(1754539238.937758) can0 1FF#A20C020001000200
(1754539238.937760) can0 2FF#0200020001000300
(1754539238.939708) can0 3FF#0200010000000200
(1754539239.037781) can0 1FF#540D020001000200
(1754539239.037783) can0 2FF#0200030001000200
(1754539239.039694) can0 3FF#0200000000000100
(1754539239.137761) can0 1FF#300D010001000200
(1754539239.137763) can0 2FF#0300030000000200
(1754539239.139715) can0 3FF#0100010000000100
(1754539239.237748) can0 1FF#ED0D010003000300
(1754539239.237750) can0 2FF#0100010001000200
(1754539239.239672) can0 3FF#0200020000000200
(1754539239.337779) can0 1FF#940D020001000200
(1754539239.337781) can0 2FF#0100010002000300
(1754539239.339724) can0 3FF#0300010000000200
(1754539239.437761) can0 1FF#D10D020001000200
(1754539239.437762) can0 2FF#0300030000000100
(1754539239.439694) can0 3FF#0100010000000000
(1754539239.537784) can0 1FF#430D010002000300
(1754539239.538759) can0 2FF#0100010001000100
(1754539239.538761) can0 3FF#0100010000000200
(1754539239.637786) can0 1FF#2E0D010002000300
(1754539239.637787) can0 2FF#0100010002000200
(1754539239.639688) can0 3FF#0200020000000200
(1754539239.737773) can0 1FF#410D020001000300
(1754539239.737775) can0 2FF#0200020001000200
(1754539239.739675) can0 3FF#0200010000000200
(1754539239.837787) can0 1FF#160D010002000200
(1754539239.837789) can0 2FF#0100020001000200
(1754539239.839696) can0 3FF#0200010000000200
(1754539239.937919) can0 1FF#1A0D020001000200
(1754539239.937920) can0 2FF#0200020001000200
(1754539239.939681) can0 3FF#0200010000000100
(1754539240.037796) can0 1FF#7D0C020001000200
(1754539240.037798) can0 2FF#0200010001000200
(1754539240.039705) can0 3FF#0200010000000200
(1754539240.137795) can0 1FF#740D010002000300
(1754539240.137796) can0 2FF#0100010002000200
(1754539240.139734) can0 3FF#0200020000000200
(1754539240.237816) can0 1FF#280D010002000200
(1754539240.237818) can0 2FF#0100020002000300
(1754539240.239761) can0 3FF#0200010000000200
(1754539240.337800) can0 1FF#A30D010002000200
(1754539240.337801) can0 2FF#0200020001000100
(1754539240.339741) can0 3FF#0100010000000100
(1754539240.437907) can0 1FF#720D010002000300
(1754539240.437910) can0 2FF#0200020001000200
(1754539240.439714) can0 3FF#0200010000000200
(1754539240.537752) can0 1FF#E20D010001000200
(1754539240.537754) can0 2FF#0200030000000100
(1754539240.539684) can0 3FF#0100010000000100
(1754539240.637775) can0 1FF#EE0C020002000200
(1754539240.637777) can0 2FF#0200020001000200
(1754539240.639689) can0 3FF#0200010000000200
(1754539240.737695) can0 1FF#740D010002000300
(1754539240.737697) can0 2FF#0100010001000200
(1754539240.739675) can0 3FF#0100020000000200
(1754539240.837747) can0 1FF#A50C020001000200
(1754539240.837749) can0 2FF#0200020001000200
(1754539240.839667) can0 3FF#0100010000000100
(1754539240.937759) can0 1FF#530D010001000200
(1754539240.937761) can0 2FF#0300030000000100
(1754539240.939696) can0 3FF#0100010000000000
(1754539241.037909) can0 1FF#850C010002000200
(1754539241.037911) can0 2FF#0100020002000200
(1754539241.039676) can0 3FF#0200010000000200
(1754539241.137750) can0 1FF#2F0D020002000200
(1754539241.137752) can0 2FF#0100020003000300
(1754539241.139671) can0 3FF#0300010000000300
(1754539241.237874) can0 1FF#E40C010002000200
(1754539241.237877) can0 2FF#0200020000000100
(1754539241.239691) can0 3FF#0000010000000100
(1754539241.337767) can0 1FF#BC0D020002000300
(1754539241.337769) can0 2FF#0200010001000200
(1754539241.339678) can0 3FF#0200010000000200
(1754539241.437740) can0 1FF#4F0D010002000300
(1754539241.437742) can0 2FF#0100020001000200
(1754539241.439648) can0 3FF#0200020000000200
(1754539241.537843) can0 1FF#830D010002000300
(1754539241.537845) can0 2FF#0200020001000200
(1754539241.539683) can0 3FF#0100010000000100
(1754539241.637745) can0 1FF#480D020001000100
(1754539241.637747) can0 2FF#0300030001000100
(1754539241.639704) can0 3FF#0100000000000100
(1754539241.737729) can0 1FF#610D020001000200
(1754539241.737730) can0 2FF#0200030001000200
(1754539241.739671) can0 3FF#0100010000000100
(1754539241.837772) can0 1FF#1A0D020001000200
(1754539241.837773) can0 2FF#0200020002000300
(1754539241.839680) can0 3FF#0200000000000200
(1754539241.937758) can0 1FF#BD0C010002000300
(1754539241.937760) can0 2FF#0100010001000200
(1754539241.939660) can0 3FF#0100020000000200
(1754539242.037945) can0 1FF#460D010002000200
(1754539242.037947) can0 2FF#0200020002000200
(1754539242.039721) can0 3FF#0200010000000200
(1754539242.137781) can0 1FF#E30C010002000300
(1754539242.137782) can0 2FF#0100020002000300
(1754539242.139716) can0 3FF#0200010000000200
(1754539242.237897) can0 1FF#E90C010001000200
(1754539242.237898) can0 2FF#0200020001000100
(1754539242.239717) can0 3FF#0100010000000100
(1754539242.337785) can0 1FF#BD0C010002000200
(1754539242.337787) can0 2FF#0200020001000200
(1754539242.339692) can0 3FF#0100020000000100
(1754539242.437727) can0 1FF#700D010002000300
(1754539242.437729) can0 2FF#0200020001000200
(1754539242.439645) can0 3FF#0100020000000100
(1754539242.537896) can0 1FF#7E0D010002000300
(1754539242.537898) can0 2FF#0100010002000200
(1754539242.539673) can0 3FF#0200010000000200
(1754539242.637751) can0 1FF#D50D010002000200
(1754539242.637753) can0 2FF#0200030001000200
(1754539242.639649) can0 3FF#0100010000000100
(1754539242.737904) can0 1FF#0D0D020001000200
(1754539242.737905) can0 2FF#0200020001000200
(1754539242.739654) can0 3FF#0200010000000100
(1754539242.837745) can0 1FF#880D010001000200
(1754539242.837747) can0 2FF#0300020000000100
(1754539242.839678) can0 3FF#0100010000000100
(1754539242.937736) can0 1FF#A80C010001000200
(1754539242.937737) can0 2FF#0300030000000100
(1754539242.939671) can0 3FF#0000010000000000
(1754539243.037892) can0 1FF#050D010001000200
(1754539243.037893) can0 2FF#0300030000000100
(1754539243.039685) can0 3FF#0100010000000100
(1754539243.137856) can0 1FF#930C010001000300
(1754539243.137858) can0 2FF#0200020001000200
(1754539243.139662) can0 3FF#0100010000000100
(1754539243.237865) can0 1FF#D30C010001000100
(1754539243.237867) can0 2FF#0300030000000100
(1754539243.239663) can0 3FF#0100010000000100
(1754539243.337854) can0 1FF#B10C010002000300
(1754539243.337856) can0 2FF#0100010001000200
(1754539243.339659) can0 3FF#0200010000000200
(1754539243.437725) can0 1FF#6D0D020001000200
(1754539243.437726) can0 2FF#0300020001000200
(1754539243.439629) can0 3FF#0200010000000100
(1754539243.537756) can0 1FF#C20D030001000100
(1754539243.537757) can0 2FF#0300020001000200
(1754539243.539663) can0 3FF#0200000000000200
(1754539243.637754) can0 1FF#FE0D020002000200
(1754539243.637757) can0 2FF#0100020002000200
(1754539243.639667) can0 3FF#0200010000000200
(1754539243.737730) can0 1FF#710D010002000200
(1754539243.737731) can0 2FF#0200020001000200
(1754539243.739641) can0 3FF#0100010000000100
(1754539243.837751) can0 1FF#110D020002000200
(1754539243.837753) can0 2FF#0200020001000200
(1754539243.839665) can0 3FF#0100010000000200
(1754539243.937760) can0 1FF#350D010001000300
(1754539243.937761) can0 2FF#0200020001000200
(1754539243.939645) can0 3FF#0100020000000100
(1754539244.037930) can0 1FF#240D020001000200
(1754539244.037932) can0 2FF#0200020001000200
(1754539244.039707) can0 3FF#0100010000000200
(1754539244.137788) can0 1FF#120D010002000200
(1754539244.137790) can0 2FF#0200020001000100
(1754539244.139729) can0 3FF#0100010000000100
(1754539244.237775) can0 1FF#710C020001000200
(1754539244.237776) can0 2FF#0200020001000200
(1754539244.239672) can0 3FF#0200010000000100
(1754539244.337793) can0 1FF#900C010001000200
(1754539244.337794) can0 2FF#0100010002000300
(1754539244.339727) can0 3FF#0200010000000300
(1754539244.437744) can0 1FF#D30C020001000100
(1754539244.437746) can0 2FF#0200020001000200
(1754539244.439648) can0 3FF#0200010000000200
(1754539244.537748) can0 1FF#A20D010002000200
(1754539244.537750) can0 2FF#0200020001000200
(1754539244.539624) can0 3FF#0200010000000200
(1754539244.637718) can0 1FF#5B0D020001000100
(1754539244.637720) can0 2FF#0300030000000100
(1754539244.639651) can0 3FF#0100010000000100
(1754539244.737722) can0 1FF#9C0D020001000200
(1754539244.737724) can0 2FF#0200020001000200
(1754539244.739631) can0 3FF#0200010000000200
(1754539244.837722) can0 1FF#180D010001000200
(1754539244.837724) can0 2FF#0300030000000100
(1754539244.839658) can0 3FF#0100010000000100
(1754539244.937725) can0 1FF#710D020001000200
(1754539244.937726) can0 2FF#0300030000000100
(1754539244.939670) can0 3FF#0000010000000000
(1754539245.037757) can0 1FF#BE0C010001000300
(1754539245.037758) can0 2FF#0200020001000200
(1754539245.039673) can0 3FF#0100010000000100
(1754539245.137724) can0 1FF#110D010002000200
(1754539245.137725) can0 2FF#0200020001000100
(1754539245.139666) can0 3FF#0100010000000100
(1754539245.237864) can0 1FF#9D0C010002000300
(1754539245.237867) can0 2FF#0100010001000200
(1754539245.239648) can0 3FF#0100020000000200
(1754539245.337692) can0 1FF#420D010002000300
(1754539245.337693) can0 2FF#0200010001000200
(1754539245.339651) can0 3FF#0100010000000100
(1754539245.437742) can0 1FF#1E0D010002000200
(1754539245.437744) can0 2FF#0200020001000100
(1754539245.439664) can0 3FF#0100010000000200
(1754539245.537706) can0 1FF#EB0D020001000200
(1754539245.537707) can0 2FF#0200020001000200
(1754539245.539646) can0 3FF#0100010000000100
(1754539245.637721) can0 1FF#300D020002000200
(1754539245.637723) can0 2FF#0100020002000300
(1754539245.639668) can0 3FF#0200010000000200
(1754539245.737714) can0 1FF#970D020001000200
(1754539245.737716) can0 2FF#0200020001000200
(1754539245.739625) can0 3FF#0100010000000200
(1754539245.837743) can0 1FF#2B0D010002000300
(1754539245.837744) can0 2FF#0100010001000100
(1754539245.839700) can0 3FF#0200010000000200
(1754539245.937751) can0 1FF#210D010002000300
(1754539245.937752) can0 2FF#0200020001000200
(1754539245.939653) can0 3FF#0200010000000200
(1754539246.037727) can0 1FF#CE0C020001000200
(1754539246.037728) can0 2FF#0200010002000200
(1754539246.039655) can0 3FF#0200010000000200
(1754539246.137727) can0 1FF#EF0C010002000300
(1754539246.137728) can0 2FF#0200020001000200
(1754539246.139660) can0 3FF#0100020000000200
(1754539246.237759) can0 1FF#FA0C010001000100
(1754539246.237761) can0 2FF#0300030001000200
(1754539246.239655) can0 3FF#0100010000000100
(1754539246.337777) can0 1FF#0D0D010001000200
(1754539246.337779) can0 2FF#0200020001000200
(1754539246.339696) can0 3FF#0100010000000200
(1754539246.437902) can0 1FF#4A0D010002000200
(1754539246.437904) can0 2FF#0200020001000200
(1754539246.439668) can0 3FF#0100010000000100
(1754539246.537719) can0 1FF#850D030001000100
(1754539246.537720) can0 2FF#0200030001000200
(1754539246.539611) can0 3FF#0100010000000100
(1754539246.637726) can0 1FF#910D020001000100
(1754539246.637727) can0 2FF#0200020001000200
(1754539246.639663) can0 3FF#0200010000000200
(1754539246.737731) can0 1FF#960D020001000200
(1754539246.737732) can0 2FF#0200020001000200
(1754539246.739643) can0 3FF#0100010000000100
(1754539246.837734) can0 1FF#BE0D010002000300
(1754539246.837735) can0 2FF#0100010002000200
(1754539246.839646) can0 3FF#0200010000000200
(1754539246.937693) can0 1FF#B40C010001000200
(1754539246.937694) can0 2FF#0200020001000100
(1754539246.939616) can0 3FF#0100020000000100
(1754539247.037707) can0 1FF#700D020001000200
(1754539247.037709) can0 2FF#0200030001000200
(1754539247.039646) can0 3FF#0100000000000100
(1754539247.137715) can0 1FF#800C020001000200
(1754539247.137716) can0 2FF#0200020001000200
(1754539247.139631) can0 3FF#0200010000000200
(1754539247.237690) can0 1FF#510D020001000200
(1754539247.237692) can0 2FF#0200020001000200
(1754539247.239597) can0 3FF#0200010000000200
(1754539247.337702) can0 1FF#820C010002000300
(1754539247.337703) can0 2FF#0100010002000200
(1754539247.339634) can0 3FF#0200010000000200
(1754539247.437700) can0 1FF#300D010002000300
(1754539247.437701) can0 2FF#0200020001000200
(1754539247.439610) can0 3FF#0100020000000100
(1754539247.537715) can0 1FF#E80C020002000300
(1754539247.537717) can0 2FF#0100010002000300
(1754539247.539624) can0 3FF#0200010000000200
(1754539247.637690) can0 1FF#E40D010001000200
(1754539247.637692) can0 2FF#0300030001000200
(1754539247.639656) can0 3FF#0100000000000100
(1754539247.737724) can0 1FF#880D020002000200
(1754539247.737726) can0 2FF#0200020001000100
(1754539247.739669) can0 3FF#0100010000000100
(1754539247.837694) can0 1FF#DE0D010001000200
(1754539247.837696) can0 2FF#0200030001000200
(1754539247.839615) can0 3FF#0100010000000100
(1754539247.937706) can0 1FF#010D020001000200
(1754539247.937707) can0 2FF#0200020002000200
(1754539247.939659) can0 3FF#0200010000000200
(1754539248.037925) can0 1FF#050D020002000200
(1754539248.037928) can0 2FF#0200020001000200
(1754539248.039667) can0 3FF#0100010000000100
(1754539248.137655) can0 1FF#F70C020001000200
(1754539248.137657) can0 2FF#0200030000000100
(1754539248.139711) can0 3FF#0100010000000100
(1754539248.237726) can0 1FF#F70C010002000300
(1754539248.237727) can0 2FF#0200010001000200
(1754539248.239646) can0 3FF#0200020000000200
(1754539248.337726) can0 1FF#A90C010001000200
(1754539248.337728) can0 2FF#0100010002000200
(1754539248.339672) can0 3FF#0200010000000200
(1754539248.437631) can0 1FF#CD0C010002000200
(1754539248.437632) can0 2FF#0200020001000200
(1754539248.439589) can0 3FF#0100010000000100
(1754539248.537703) can0 1FF#2C0D020001000200
(1754539248.537704) can0 2FF#0300030000000100
(1754539248.539618) can0 3FF#0100010000000100
(1754539248.637699) can0 1FF#7F0D010003000300
(1754539248.637700) can0 2FF#0100020001000300
(1754539248.639590) can0 3FF#0100020000000200
(1754539248.737806) can0 1FF#CB0D010001000200
(1754539248.737808) can0 2FF#0300030000000100
(1754539248.739632) can0 3FF#0100010000000100
(1754539248.837658) can0 1FF#1E0D020001000100
(1754539248.837659) can0 2FF#0300030001000200
(1754539248.839629) can0 3FF#0100010000000100
(1754539248.937625) can0 1FF#5C0D010003000400
(1754539248.938603) can0 2FF#0100010001000100
(1754539248.938604) can0 3FF#0200020000000100
(1754539249.037693) can0 1FF#DD0C010002000300
(1754539249.037694) can0 2FF#0200020001000100
(1754539249.039612) can0 3FF#0100020000000100
(1754539249.137695) can0 1FF#4E0D020001000200
(1754539249.137696) can0 2FF#0100020001000300
(1754539249.139631) can0 3FF#0100010000000200
(1754539249.237697) can0 1FF#790C010003000400
(1754539249.237699) can0 2FF#0100010002000300
(1754539249.239609) can0 3FF#0200020000000200
(1754539249.337702) can0 1FF#170D010002000300
(1754539249.337703) can0 2FF#0100010002000200
(1754539249.339624) can0 3FF#0200010000000300
(1754539249.437702) can0 1FF#B60C020002000200
(1754539249.437704) can0 2FF#0100010002000300
(1754539249.439637) can0 3FF#0200010000000200
(1754539249.537671) can0 1FF#730D010002000300
(1754539249.537672) can0 2FF#0100010001000200
(1754539249.539584) can0 3FF#0200020000000200
(1754539249.637681) can0 1FF#590D010002000300
(1754539249.637682) can0 2FF#0100010002000200
(1754539249.639616) can0 3FF#0100010000000200
(1754539249.737689) can0 1FF#070E020002000300
(1754539249.737690) can0 2FF#0100010001000200
(1754539249.739626) can0 3FF#0200010000000200
(1754539249.837710) can0 1FF#1A0D020002000200
(1754539249.837711) can0 2FF#0100010002000200
(1754539249.839624) can0 3FF#0200010000000200
(1754539249.937713) can0 1FF#7A0D020001000200
(1754539249.937714) can0 2FF#0200020001000200
(1754539249.939632) can0 3FF#0200010000000100
(1754539250.037712) can0 1FF#A70C010001000300
(1754539250.037713) can0 2FF#0200010001000200
(1754539250.039625) can0 3FF#0200010000000200
(1754539250.137745) can0 1FF#580D020001000200
(1754539250.137746) can0 2FF#0300030001000100
(1754539250.139677) can0 3FF#0100000000000100
(1754539250.237824) can0 1FF#8F0C010001000200
(1754539250.237826) can0 2FF#0200020001000200
(1754539250.239633) can0 3FF#0100010000000100
(1754539250.337724) can0 1FF#E00C020001000200
(1754539250.337725) can0 2FF#0200020002000300
(1754539250.339671) can0 3FF#0300010000000200
(1754539250.437764) can0 1FF#AE0C010002000200
(1754539250.437765) can0 2FF#0200020001000200
(1754539250.439611) can0 3FF#0100010000000100
(1754539250.537681) can0 1FF#920D010001000200
(1754539250.537683) can0 2FF#0200030001000200
(1754539250.539617) can0 3FF#0100010000000100
(1754539250.637673) can0 1FF#B60D010002000200
(1754539250.637675) can0 2FF#0100020001000100
(1754539250.639617) can0 3FF#0100010000000100
(1754539250.737694) can0 1FF#940D020001000100
(1754539250.737696) can0 2FF#0200020002000200
(1754539250.739639) can0 3FF#0100010000000200
(1754539250.837683) can0 1FF#AD0D020001000100
(1754539250.837685) can0 2FF#0200020001000200
(1754539250.839590) can0 3FF#0300000000000200
(1754539250.937665) can0 1FF#2D0D020001000100
(1754539250.937666) can0 2FF#0200020001000200
(1754539250.939613) can0 3FF#0200000000000200
(1754539251.037706) can0 1FF#3D0D010003000400
(1754539251.037707) can0 2FF#0100010001000200
(1754539251.039601) can0 3FF#0100020000000100
(1754539251.137657) can0 1FF#8B0C010002000300
(1754539251.137658) can0 2FF#0100010002000200
(1754539251.139603) can0 3FF#0200010000000200
(1754539251.237701) can0 1FF#3C0D010002000200
(1754539251.237703) can0 2FF#0300030000000100
(1754539251.239652) can0 3FF#0000010000000100
(1754539251.337684) can0 1FF#820C010001000200
(1754539251.337685) can0 2FF#0200030000000100
(1754539251.339615) can0 3FF#0100010000000100
(1754539251.437688) can0 1FF#190D020001000100
(1754539251.437690) can0 2FF#0300020001000200
(1754539251.439596) can0 3FF#0200000000000200
(1754539251.537655) can0 1FF#E30C020001000100
(1754539251.537658) can0 2FF#0300030001000200
(1754539251.539593) can0 3FF#0200000000000100
(1754539251.637704) can0 1FF#B10D010002000300
(1754539251.637705) can0 2FF#0200010002000200
(1754539251.639601) can0 3FF#0100020000000200
(1754539251.737658) can0 1FF#2F0D010002000200
(1754539251.737660) can0 2FF#0200020001000200
(1754539251.739578) can0 3FF#0100010000000100
(1754539251.837667) can0 1FF#C50D010002000300
(1754539251.837668) can0 2FF#0100010001000200
(1754539251.839466) can0 3FF#0100020000000200
(1754539251.937651) can0 1FF#ED0C010002000200
(1754539251.937653) can0 2FF#0100020001000200
(1754539251.939604) can0 3FF#0200010000000200
(1754539252.037830) can0 1FF#470D010002000300
(1754539252.037833) can0 2FF#0100010002000200
(1754539252.039588) can0 3FF#0200020000000200
(1754539252.137735) can0 1FF#A70C010001000200
(1754539252.137737) can0 2FF#0200020001000200
(1754539252.139638) can0 3FF#0200010000000200
(1754539252.237729) can0 1FF#0E0D010001000200
(1754539252.237731) can0 2FF#0200020001000200
(1754539252.239638) can0 3FF#0100010000000100
(1754539252.337728) can0 1FF#BC0C010002000200
(1754539252.337730) can0 2FF#0100010001000200
(1754539252.339634) can0 3FF#0200010000000200
(1754539252.437741) can0 1FF#410D020001000300
(1754539252.437742) can0 2FF#0100010001000300
(1754539252.439637) can0 3FF#0200010000000200
(1754539252.537711) can0 1FF#0C0D000003000300
(1754539252.537712) can0 2FF#0100010001000200
(1754539252.539637) can0 3FF#0100020000000200
(1754539252.637683) can0 1FF#640D020001000200
(1754539252.637685) can0 2FF#0100010002000300
(1754539252.639622) can0 3FF#0200010000000300
(1754539252.737632) can0 1FF#6F0D020001000200
(1754539252.737634) can0 2FF#0200020001000200
(1754539252.739594) can0 3FF#0100010000000200
(1754539252.837677) can0 1FF#8E0D010002000200
(1754539252.837679) can0 2FF#0100010002000300
(1754539252.839599) can0 3FF#0200010000000200
(1754539252.937667) can0 1FF#8D0D020001000100
(1754539252.937669) can0 2FF#0200030001000200
(1754539252.939600) can0 3FF#0100000000000100
(1754539253.037670) can0 1FF#AB0C020001000100
(1754539253.037672) can0 2FF#0200030000000100
(1754539253.039578) can0 3FF#0100010000000100
(1754539253.137671) can0 1FF#6C0C020001000200
(1754539253.137673) can0 2FF#0200020001000200
(1754539253.139579) can0 3FF#0100010000000100
(1754539253.237544) can0 1FF#B70C010002000200
(1754539253.237546) can0 2FF#0200020001000200
(1754539253.239563) can0 3FF#0100010000000100
(1754539253.337605) can0 1FF#100D010001000100
(1754539253.337607) can0 2FF#0300030000000100
(1754539253.339604) can0 3FF#0000010000000000
(1754539253.437674) can0 1FF#C10C010002000200
(1754539253.437676) can0 2FF#0200020001000200
(1754539253.439581) can0 3FF#0100010000000200
(1754539253.537590) can0 1FF#490D010002000300
(1754539253.537591) can0 2FF#0100010002000300
(1754539253.539583) can0 3FF#0200010000000200
(1754539253.637660) can0 1FF#620D020002000200
(1754539253.637662) can0 2FF#0200020002000300
(1754539253.639597) can0 3FF#0200010000000200
(1754539253.737589) can0 1FF#170E010002000300
(1754539253.737590) can0 2FF#0100010001000200
(1754539253.739598) can0 3FF#0100010000000200
(1754539253.837603) can0 1FF#290D020001000200
(1754539253.837605) can0 2FF#0200010002000300
(1754539253.839603) can0 3FF#0200010000000200
(1754539253.937595) can0 1FF#AB0D010001000200
(1754539253.937596) can0 2FF#0200030001000200
(1754539253.939590) can0 3FF#0100010000000100
(1754539254.037656) can0 1FF#C30C030001000200
(1754539254.037658) can0 2FF#0200020001000200
(1754539254.039567) can0 3FF#0200000000000200
(1754539254.137606) can0 1FF#250D020001000300
(1754539254.137607) can0 2FF#0100010002000300
(1754539254.139567) can0 3FF#0200010000000200
(1754539254.237654) can0 1FF#990C010002000300
(1754539254.237656) can0 2FF#0100010002000300
(1754539254.239570) can0 3FF#0200020000000200
(1754539254.337685) can0 1FF#360D010002000300
(1754539254.337688) can0 2FF#0200020001000200
(1754539254.339593) can0 3FF#0100010000000100
(1754539254.437693) can0 1FF#8D0C010002000300
(1754539254.437695) can0 2FF#0200010002000200
(1754539254.439600) can0 3FF#0100020000000200
(1754539254.537687) can0 1FF#D50D010002000200
(1754539254.537688) can0 2FF#0200020002000200
(1754539254.539615) can0 3FF#0200010000000200
(1754539254.637732) can0 1FF#500D020001000200
(1754539254.637733) can0 2FF#0300030000000100
(1754539254.639669) can0 3FF#0100000000000100
(1754539254.737652) can0 1FF#E30D020001000200
(1754539254.737654) can0 2FF#0300030001000100
(1754539254.739539) can0 3FF#0100000000000100
(1754539254.837631) can0 1FF#280D020001000200
(1754539254.837632) can0 2FF#0200020001000200
(1754539254.839569) can0 3FF#0100010000000200
(1754539254.937652) can0 1FF#200D010003000300
(1754539254.937653) can0 2FF#0100010001000200
(1754539254.939557) can0 3FF#0200020000000200
(1754539255.037651) can0 1FF#A70C010002000300
(1754539255.037652) can0 2FF#0100010001000200
(1754539255.039556) can0 3FF#0100020000000200
(1754539255.137660) can0 1FF#1A0D010002000300
(1754539255.137661) can0 2FF#0100010002000200
(1754539255.139564) can0 3FF#0200020000000200
(1754539255.237649) can0 1FF#A90C010002000300
(1754539255.237651) can0 2FF#0100010002000200
(1754539255.239562) can0 3FF#0300010000000300
(1754539255.337652) can0 1FF#050D010002000300
(1754539255.337653) can0 2FF#0100010002000300
(1754539255.339596) can0 3FF#0300010000000300
(1754539255.437813) can0 1FF#D60C010002000200
(1754539255.437815) can0 2FF#0100020001000200
(1754539255.439573) can0 3FF#0100020000000100
(1754539255.537643) can0 1FF#6C0D020001000200
(1754539255.537645) can0 2FF#0200020001000100
(1754539255.539572) can0 3FF#0200010000000100
(1754539255.637639) can0 1FF#E60D010001000200
(1754539255.637641) can0 2FF#0300020000000100
(1754539255.639586) can0 3FF#0100010000000100
(1754539255.737752) can0 1FF#500D010002000300
(1754539255.737753) can0 2FF#0200020001000200
(1754539255.739550) can0 3FF#0100010000000100
(1754539255.837777) can0 1FF#900D010002000300
(1754539255.837778) can0 2FF#0200020001000100
(1754539255.839574) can0 3FF#0100020000000100
(1754539255.937734) can0 1FF#F10C030001000200
(1754539255.937735) can0 2FF#0200020002000300
(1754539255.939555) can0 3FF#0200010000000200
(1754539256.037810) can0 1FF#3C0D010001000200
(1754539256.037811) can0 2FF#0200020001000200
(1754539256.039580) can0 3FF#0100010000000100
(1754539256.137645) can0 1FF#830C020001000100
(1754539256.137646) can0 2FF#0200020001000200
(1754539256.139555) can0 3FF#0200000000000200
(1754539256.237680) can0 1FF#380D010002000200
(1754539256.237682) can0 2FF#0200020001000100
(1754539256.239584) can0 3FF#0100010000000100
(1754539256.337644) can0 1FF#870C010002000300
(1754539256.337646) can0 2FF#0200010001000200
(1754539256.339532) can0 3FF#0100020000000100
(1754539256.437650) can0 1FF#250D020001000200
(1754539256.437651) can0 2FF#0200020001000200
(1754539256.439601) can0 3FF#0200010000000100
(1754539256.537648) can0 1FF#E90C010001000200
(1754539256.537649) can0 2FF#0200020001000200
(1754539256.539554) can0 3FF#0100010000000200
(1754539256.637691) can0 1FF#7F0D010002000300
(1754539256.637693) can0 2FF#0100020001000200
(1754539256.639590) can0 3FF#0100020000000200
(1754539256.737675) can0 1FF#4E0D020001000300
(1754539256.737677) can0 2FF#0200020001000200
(1754539256.739584) can0 3FF#0100010000000100
(1754539256.837677) can0 1FF#C50D020001000200
(1754539256.837679) can0 2FF#0200020001000200
(1754539256.839585) can0 3FF#0200000000000200
(1754539256.937811) can0 1FF#2F0D010002000300
(1754539256.937812) can0 2FF#0200020001000100
(1754539256.939622) can0 3FF#0100010000000100
(1754539257.037646) can0 1FF#7A0D020001000200
(1754539257.037647) can0 2FF#0200020000000200
(1754539257.039573) can0 3FF#0100010000000200
(1754539257.137631) can0 1FF#160D010002000200
(1754539257.137633) can0 2FF#0200020001000100
(1754539257.139573) can0 3FF#0100010000000100
(1754539257.237619) can0 1FF#A00C010002000300
(1754539257.237620) can0 2FF#0100010001000200
(1754539257.239545) can0 3FF#0200020000000200
(1754539257.337626) can0 1FF#C00C020001000200
(1754539257.337628) can0 2FF#0300030000000100
(1754539257.339575) can0 3FF#0100010000000100
(1754539257.437642) can0 1FF#AF0C030000000100
(1754539257.437644) can0 2FF#0300020001000200
(1754539257.439550) can0 3FF#0200000000000200
(1754539257.537669) can0 1FF#080D000002000200
(1754539257.537671) can0 2FF#0200020001000200
(1754539257.539553) can0 3FF#0100010000000100
(1754539257.637623) can0 1FF#A40C010001000200
(1754539257.637624) can0 2FF#0200020001000200
(1754539257.639558) can0 3FF#0100010000000100
(1754539257.737633) can0 1FF#200D010002000300
(1754539257.737634) can0 2FF#0200020000000100
(1754539257.739589) can0 3FF#0100010000000100
(1754539257.837623) can0 1FF#150D010003000300
(1754539257.837623) can0 2FF#0100020001000200
(1754539257.839769) can0 3FF#0200010000000200
(1754539257.937576) can0 1FF#DF0D010002000300
(1754539257.937577) can0 2FF#0200020001000100
(1754539257.939555) can0 3FF#0100020000000100
(1754539258.037561) can0 1FF#180D020001000200
(1754539258.037562) can0 2FF#0200020001000200
(1754539258.039526) can0 3FF#0100010000000100
(1754539258.137632) can0 1FF#BE0D020001000200
(1754539258.137634) can0 2FF#0200020001000200
(1754539258.139539) can0 3FF#0200000000000200
(1754539258.237632) can0 1FF#E70C030001000100
(1754539258.237633) can0 2FF#0200020002000200
(1754539258.239551) can0 3FF#0200000000000200
(1754539258.337632) can0 1FF#500D010001000100
(1754539258.337634) can0 2FF#0300030000000100
(1754539258.339567) can0 3FF#0000010000000100
(1754539258.437623) can0 1FF#BF0C010002000200
(1754539258.437625) can0 2FF#0200020001000100
(1754539258.439550) can0 3FF#0100010000000100
(1754539258.537636) can0 1FF#010D010001000200
(1754539258.537638) can0 2FF#0200030001000100
(1754539258.539573) can0 3FF#0100010000000000
(1754539258.637640) can0 1FF#820C020001000100
(1754539258.637642) can0 2FF#0200030001000200
(1754539258.639543) can0 3FF#0100010000000100
(1754539258.737585) can0 1FF#DB0C010001000200
(1754539258.737586) can0 2FF#0200020001000200
(1754539258.739568) can0 3FF#0100010000000100
(1754539258.837672) can0 1FF#680D020002000300
(1754539258.837673) can0 2FF#0100010002000200
(1754539258.839630) can0 3FF#0200010000000300
(1754539258.937674) can0 1FF#920D010002000200
(1754539258.937675) can0 2FF#0200020001000200
(1754539258.939576) can0 3FF#0100020000000200
(1754539259.037677) can0 1FF#9E0D010002000300
(1754539259.037678) can0 2FF#0100010002000200
(1754539259.039579) can0 3FF#0200010000000200
(1754539259.137641) can0 1FF#970D020001000200
(1754539259.137642) can0 2FF#0300020001000200
(1754539259.139582) can0 3FF#0100010000000100
(1754539259.237626) can0 1FF#660D020001000200
(1754539259.237628) can0 2FF#0200020001000200
(1754539259.239563) can0 3FF#0200010000000200
(1754539259.337625) can0 1FF#270D010001000200
(1754539259.337626) can0 2FF#0300030001000100
(1754539259.339528) can0 3FF#0100010000000100
(1754539259.437598) can0 1FF#480D020002000200
(1754539259.437601) can0 2FF#0200030001000100
(1754539259.439541) can0 3FF#0100010000000100
(1754539259.537599) can0 1FF#6C0C020001000200
(1754539259.537600) can0 2FF#0200020001000200
(1754539259.539537) can0 3FF#0200000000000200
(1754539259.637669) can0 1FF#ED0C010002000300
(1754539259.637671) can0 2FF#0200020001000200
(1754539259.639544) can0 3FF#0100010000000100
(1754539259.737609) can0 1FF#930C010002000200
(1754539259.737612) can0 2FF#0200020001000200
(1754539259.739542) can0 3FF#0100010000000100
(1754539259.837549) can0 1FF#520D010002000300
(1754539259.837550) can0 2FF#0200020001000200
(1754539259.839600) can0 3FF#0100020000000100
(1754539259.937611) can0 1FF#400D010002000300
(1754539259.937613) can0 2FF#0100020002000200
(1754539259.939544) can0 3FF#0200010000000200
(1754539260.037605) can0 1FF#DC0D010002000300
(1754539260.037606) can0 2FF#0100020001000200
(1754539260.039547) can0 3FF#0100010000000200
(1754539260.137602) can0 1FF#260D020001000200
(1754539260.137604) can0 2FF#0200030001000200
(1754539260.139551) can0 3FF#0100010000000200
(1754539260.237592) can0 1FF#B30D020001000300
(1754539260.237593) can0 2FF#0100010001000200
(1754539260.239544) can0 3FF#0200000000000200
(1754539260.337611) can0 1FF#E70C010002000300
(1754539260.337613) can0 2FF#0100010002000300
(1754539260.339547) can0 3FF#0200010000000200
(1754539260.437614) can0 1FF#390D020002000200
(1754539260.437617) can0 2FF#0200020001000200
(1754539260.439553) can0 3FF#0100010000000100
(1754539260.537629) can0 1FF#940C010001000200
(1754539260.537631) can0 2FF#0200030001000200
(1754539260.539557) can0 3FF#0100010000000100
(1754539260.637548) can0 1FF#210D010002000300
(1754539260.637550) can0 2FF#0200010001000200
(1754539260.639549) can0 3FF#0200010000000200
(1754539260.737613) can0 1FF#E00C010002000300
(1754539260.737614) can0 2FF#0100010001000200
(1754539260.739555) can0 3FF#0100010000000200
(1754539260.837650) can0 1FF#A90D020001000200
(1754539260.837652) can0 2FF#0300020001000200
(1754539260.839556) can0 3FF#0200010000000100
(1754539260.937650) can0 1FF#400D010002000200
(1754539260.937652) can0 2FF#0100020001000200
(1754539260.939587) can0 3FF#0200010000000200
(1754539261.037657) can0 1FF#BB0D020001000200
(1754539261.037659) can0 2FF#0200020001000200
(1754539261.039571) can0 3FF#0200010000000200
(1754539261.137614) can0 1FF#3D0D010002000200
(1754539261.137615) can0 2FF#0200030001000200
(1754539261.139563) can0 3FF#0100010000000100
(1754539261.237627) can0 1FF#710D020001000100
(1754539261.237629) can0 2FF#0300030001000200
(1754539261.239559) can0 3FF#0100010000000100
(1754539261.337589) can0 1FF#450D020001000200
(1754539261.337590) can0 2FF#0200020001000100
(1754539261.339560) can0 3FF#0100010000000100
(1754539261.437637) can0 1FF#970C020002000300
(1754539261.437638) can0 2FF#0100020001000200
(1754539261.439583) can0 3FF#0100010000000100
(1754539261.537612) can0 1FF#5E0C020001000200
(1754539261.537614) can0 2FF#0200020001000200
(1754539261.539563) can0 3FF#0100010000000100
(1754539261.637574) can0 1FF#C10C010002000300
(1754539261.637575) can0 2FF#0200020001000200
(1754539261.639567) can0 3FF#0100010000000100
(1754539261.737620) can0 1FF#EF0C010002000200
(1754539261.737621) can0 2FF#0200020001000200
(1754539261.739494) can0 3FF#0200010000000100
(1754539261.837638) can0 1FF#AE0C010002000300
(1754539261.837640) can0 2FF#0200020001000200
(1754539261.839492) can0 3FF#0100010000000100
(1754539261.937645) can0 1FF#4E0D010002000300
(1754539261.937646) can0 2FF#0100020002000200
(1754539261.939570) can0 3FF#0100020000000200
(1754539262.037642) can0 1FF#770D020002000300
(1754539262.037644) can0 2FF#0100010002000300
(1754539262.039581) can0 3FF#0200010000000200
(1754539262.137639) can0 1FF#080E010002000200
(1754539262.137640) can0 2FF#0100020001000200
(1754539262.139789) can0 3FF#0200010000000200
(1754539262.237579) can0 1FF#1F0D010002000300
(1754539262.237580) can0 2FF#0100020002000200
(1754539262.239574) can0 3FF#0200010000000200
(1754539262.337644) can0 1FF#B60D020001000200
(1754539262.337646) can0 2FF#0200020001000200
(1754539262.339511) can0 3FF#0100010000000200
(1754539262.437652) can0 1FF#BE0C020002000200
(1754539262.437654) can0 2FF#0200020002000200
(1754539262.439589) can0 3FF#0200010000000200
(1754539262.537640) can0 1FF#4F0D020001000200
(1754539262.537642) can0 2FF#0200020002000200
(1754539262.539594) can0 3FF#0100010000000200
(1754539262.637655) can0 1FF#8C0C010001000200
(1754539262.637657) can0 2FF#0200020001000200
(1754539262.639505) can0 3FF#0100010000000100
(1754539262.737661) can0 1FF#060D010002000200
(1754539262.737662) can0 2FF#0200020002000200
(1754539262.739596) can0 3FF#0100010000000200
(1754539262.837657) can0 1FF#7B0C010002000200
(1754539262.837658) can0 2FF#0200020001000200
(1754539262.839592) can0 3FF#0200010000000100
(1754539262.937669) can0 1FF#050D010002000200
(1754539262.937671) can0 2FF#0100020001000200
(1754539262.939593) can0 3FF#0200010000000200
(1754539263.037660) can0 1FF#460D010002000300
(1754539263.037662) can0 2FF#0100010001000200
(1754539263.039598) can0 3FF#0100020000000200
(1754539263.137761) can0 1FF#DC0D010002000300
(1754539263.137763) can0 2FF#0100010002000200
(1754539263.139599) can0 3FF#0200010000000200
(1754539263.237663) can0 1FF#CD0D020001000100
(1754539263.237665) can0 2FF#0200030001000100
(1754539263.239601) can0 3FF#0100010000000100
(1754539263.337757) can0 1FF#840D010002000200
(1754539263.337758) can0 2FF#0200020001000200
(1754539263.339525) can0 3FF#0200010000000200
(1754539263.437569) can0 1FF#640D020001000100
(1754539263.437571) can0 2FF#0400030000000100
(1754539263.439519) can0 3FF#0100000000000100
(1754539263.537570) can0 1FF#2F0D030001000200
(1754539263.537572) can0 2FF#0200030001000200
(1754539263.539498) can0 3FF#0100010000000100
(1754539263.637586) can0 1FF#410D010002000200
(1754539263.637588) can0 2FF#0200020001000200
(1754539263.639525) can0 3FF#0100010000000100
(1754539263.737648) can0 1FF#B30C010001000200
(1754539263.737649) can0 2FF#0200030001000100
(1754539263.739566) can0 3FF#0000010000000100
(1754539263.837573) can0 1FF#CD0C010002000300
(1754539263.837575) can0 2FF#0200020001000200
(1754539263.839482) can0 3FF#0100010000000100
(1754539263.937718) can0 1FF#910C020001000200
(1754539263.937720) can0 2FF#0100020001000300
(1754539263.939486) can0 3FF#0200010000000200
(1754539264.037742) can0 1FF#0E0D010002000300
(1754539264.037745) can0 2FF#0100010003000300
(1754539264.039536) can0 3FF#0200010000000300
(1754539264.137578) can0 1FF#B20C010001000200
(1754539264.137580) can0 2FF#0200030001000200
(1754539264.139484) can0 3FF#0100010000000100
(1754539264.237573) can0 1FF#420D010002000200
(1754539264.237575) can0 2FF#0200020001000100
(1754539264.239512) can0 3FF#0100010000000100
(1754539264.337565) can0 1FF#290D010002000300
(1754539264.337567) can0 2FF#0200010001000100
(1754539264.339484) can0 3FF#0100020000000200
(1754539264.437701) can0 1FF#E70D010002000300
(1754539264.437703) can0 2FF#0200020000000100
(1754539264.439490) can0 3FF#0100010000000100
(1754539264.537576) can0 1FF#760D010002000300
(1754539264.537578) can0 2FF#0100010002000200
(1754539264.539520) can0 3FF#0100010000000200
(1754539264.637572) can0 1FF#D20D010002000200
(1754539264.637573) can0 2FF#0100020001000200
(1754539264.639490) can0 3FF#0100020000000100
(1754539264.737517) can0 1FF#F20C020001000200
(1754539264.737518) can0 2FF#0200020001000300
(1754539264.739489) can0 3FF#0200010000000200
(1754539264.837582) can0 1FF#230D020001000200
(1754539264.837584) can0 2FF#0200030001000100
(1754539264.839490) can0 3FF#0100010000000100
(1754539264.937592) can0 1FF#F70C010002000200
(1754539264.937593) can0 2FF#0100020002000200
(1754539264.939511) can0 3FF#0100010000000200
(1754539265.037620) can0 1FF#FE0C020001000200
(1754539265.037622) can0 2FF#0100010002000300
(1754539265.039550) can0 3FF#0200010000000300
(1754539265.137611) can0 1FF#C30C010002000300
(1754539265.137613) can0 2FF#0100010002000200
(1754539265.139533) can0 3FF#0200020000000200
(1754539265.237594) can0 1FF#6F0C010001000200
(1754539265.237596) can0 2FF#0200020001000300
(1754539265.239528) can0 3FF#0200010000000200
(1754539265.337609) can0 1FF#B40C010001000200
(1754539265.337611) can0 2FF#0200020001000100
(1754539265.339531) can0 3FF#0100020000000100
(1754539265.437556) can0 1FF#E90C020001000200
(1754539265.437557) can0 2FF#0200020001000100
(1754539265.439507) can0 3FF#0200010000000200
(1754539265.537567) can0 1FF#C60D010001000200
(1754539265.537569) can0 2FF#0200020001000100
(1754539265.539506) can0 3FF#0100010000000100
(1754539265.637582) can0 1FF#4C0D020001000100
(1754539265.637583) can0 2FF#0200030001000100
(1754539265.639481) can0 3FF#0100010000000100
(1754539265.737591) can0 1FF#890D020001000200
(1754539265.737592) can0 2FF#0200020001000200
(1754539265.739470) can0 3FF#0100010000000100
(1754539265.837588) can0 1FF#E80C020001000100
(1754539265.837590) can0 2FF#0300030000000100
(1754539265.839519) can0 3FF#0000010000000100
(1754539265.937670) can0 1FF#680D020001000200
(1754539265.937671) can0 2FF#0300030000000100
(1754539265.939523) can0 3FF#0100000000000100
(1754539266.037711) can0 1FF#DC0C010002000300
(1754539266.037712) can0 2FF#0200020001000200
(1754539266.039516) can0 3FF#0200010000000200
(1754539266.137582) can0 1FF#0D0D020001000100
(1754539266.137584) can0 2FF#0200030001000200
(1754539266.139493) can0 3FF#0200010000000100
(1754539266.237590) can0 1FF#C00C010002000200
(1754539266.237592) can0 2FF#0300020000000100
(1754539266.239496) can0 3FF#0000010000000100
(1754539266.337559) can0 1FF#760D020001000200
(1754539266.337561) can0 2FF#0400030000000100
(1754539266.339499) can0 3FF#0100010000000100
(1754539266.437712) can0 1FF#480D010001000100
(1754539266.437714) can0 2FF#0300030000000100
(1754539266.439509) can0 3FF#0100010000000000
(1754539266.537737) can0 1FF#1C0E020001000100
(1754539266.537740) can0 2FF#0200030001000200
(1754539266.539507) can0 3FF#0200000000000100
(1754539266.637573) can0 1FF#320D020001000200
(1754539266.637575) can0 2FF#0200020001000200
(1754539266.639480) can0 3FF#0200010000000200
(1754539266.737556) can0 1FF#820D020001000200
(1754539266.737558) can0 2FF#0200020002000200
(1754539266.739478) can0 3FF#0200000000000200
(1754539266.837562) can0 1FF#180D020002000200
(1754539266.837563) can0 2FF#0200020001000200
(1754539266.839479) can0 3FF#0100010000000100
(1754539266.937584) can0 1FF#2A0D020001000200
(1754539266.937586) can0 2FF#0200020001000200
(1754539266.939491) can0 3FF#0200010000000100
(1754539267.037693) can0 1FF#B40C020001000200
(1754539267.037696) can0 2FF#0200020001000200
(1754539267.039491) can0 3FF#0200000000000200
(1754539267.137580) can0 1FF#BD0C010002000300
(1754539267.137582) can0 2FF#0200020001000200
(1754539267.139494) can0 3FF#0200010000000100
(1754539267.237600) can0 1FF#900C010001000200
(1754539267.237602) can0 2FF#0200020001000200
(1754539267.239516) can0 3FF#0200010000000200
(1754539267.337602) can0 1FF#1C0D010002000300
(1754539267.337604) can0 2FF#0100010002000200
(1754539267.339543) can0 3FF#0100010000000200
(1754539267.437584) can0 1FF#500D020001000200
(1754539267.437586) can0 2FF#0300020001000200
(1754539267.439484) can0 3FF#0100010000000100
(1754539267.537558) can0 1FF#600D010002000300
(1754539267.537559) can0 2FF#0200020002000200
(1754539267.539491) can0 3FF#0200010000000200
(1754539267.637554) can0 1FF#730D020002000200
(1754539267.637556) can0 2FF#0100010002000300
(1754539267.639506) can0 3FF#0200010000000200
(1754539267.737474) can0 1FF#310D020001000200
(1754539267.737476) can0 2FF#0200020001000200
(1754539267.739474) can0 3FF#0100000000000200
(1754539267.837697) can0 1FF#4A0D020001000200
(1754539267.837699) can0 2FF#0200020001000200
(1754539267.839480) can0 3FF#0200010000000200
(1754539267.937541) can0 1FF#5F0C010001000300
(1754539267.937543) can0 2FF#0200020001000200
(1754539267.939448) can0 3FF#0200010000000100
(1754539268.037533) can0 1FF#D80C030001000100
(1754539268.037534) can0 2FF#0200030001000300
(1754539268.039447) can0 3FF#0200000000000100
(1754539268.137542) can0 1FF#920C020001000200
(1754539268.137543) can0 2FF#0300020001000200
(1754539268.139506) can0 3FF#0100000000000100
(1754539268.237529) can0 1FF#790D020001000100
(1754539268.237531) can0 2FF#0300030001000100
(1754539268.239477) can0 3FF#0100000000000100
(1754539268.337540) can0 1FF#B40C010002000300
(1754539268.338505) can0 2FF#0100010001000100
(1754539268.338506) can0 3FF#0200020000000200
(1754539268.437665) can0 1FF#7A0C010001000200
(1754539268.437668) can0 2FF#0200020001000200
(1754539268.439464) can0 3FF#0200010000000200
(1754539268.537554) can0 1FF#260D010002000300
(1754539268.537556) can0 2FF#0100010002000200
(1754539268.539460) can0 3FF#0200020000000200
(1754539268.637552) can0 1FF#AE0D010002000300
(1754539268.637554) can0 2FF#0200020001000200
(1754539268.639483) can0 3FF#0100010000000200
(1754539268.737663) can0 1FF#AA0D010001000200
(1754539268.737664) can0 2FF#0200020001000100
(1754539268.739470) can0 3FF#0100010000000100
(1754539268.837549) can0 1FF#5F0D010002000200
(1754539268.837550) can0 2FF#0200020001000100
(1754539268.839492) can0 3FF#0100010000000200
(1754539268.937710) can0 1FF#3C0D020002000300
(1754539268.937711) can0 2FF#0100010002000300
(1754539268.939550) can0 3FF#0200010000000300
(1754539269.037578) can0 1FF#580D010003000300
(1754539269.037580) can0 2FF#0100020001000100
(1754539269.039521) can0 3FF#0100010000000200
(1754539269.137575) can0 1FF#670C010002000200
(1754539269.137576) can0 2FF#0200020001000200
(1754539269.139501) can0 3FF#0100010000000100
(1754539269.237590) can0 1FF#FC0C010002000300
(1754539269.237592) can0 2FF#0200010001000200
(1754539269.239521) can0 3FF#0100010000000200
(1754539269.337664) can0 1FF#950C010001000300
(1754539269.337665) can0 2FF#0200020001000200
(1754539269.339451) can0 3FF#0200010000000200
(1754539269.437538) can0 1FF#360D010002000300
(1754539269.437539) can0 2FF#0200020001000200
(1754539269.439454) can0 3FF#0100010000000100
(1754539269.537546) can0 1FF#5F0D010002000200
(1754539269.537547) can0 2FF#0100020002000200
(1754539269.539478) can0 3FF#0100010000000200
(1754539269.637532) can0 1FF#D70D020002000300
(1754539269.637534) can0 2FF#0200020001000200
(1754539269.639448) can0 3FF#0200010000000200
(1754539269.737525) can0 1FF#4F0D020001000200
(1754539269.737527) can0 2FF#0200020001000200
(1754539269.739459) can0 3FF#0100010000000200
(1754539269.837548) can0 1FF#C40D020002000200
(1754539269.837550) can0 2FF#0200020001000200
(1754539269.839456) can0 3FF#0100010000000200
(1754539269.937666) can0 1FF#DC0C020001000200
(1754539269.937668) can0 2FF#0200010002000200
(1754539269.939432) can0 3FF#0200010000000200
(1754539270.037521) can0 1FF#780D020001000200
(1754539270.037523) can0 2FF#0200020001000200
(1754539270.039436) can0 3FF#0100010000000100
(1754539270.137526) can0 1FF#8C0C010002000200
(1754539270.137528) can0 2FF#0200020001000200
(1754539270.139436) can0 3FF#0100010000000100
(1754539270.237528) can0 1FF#510D020001000200
(1754539270.237530) can0 2FF#0200030001000200
(1754539270.239405) can0 3FF#0200010000000100
(1754539270.337644) can0 1FF#940C010001000200
(1754539270.337645) can0 2FF#0200020001000100
(1754539270.339469) can0 3FF#0100010000000200
(1754539270.437661) can0 1FF#770D010001000200
(1754539270.437665) can0 2FF#0200020001000100
(1754539270.439443) can0 3FF#0200010000000200
(1754539270.537508) can0 1FF#510D010002000300
(1754539270.537510) can0 2FF#0200020001000200
(1754539270.539420) can0 3FF#0200010000000200
(1754539270.637530) can0 1FF#B00D020002000200
