(1754539414.736381) can0 1FF#E001010002000200
(1754539414.736382) can0 2FF#0200020001000200
(1754539414.738321) can0 3FF#0100010000000100
(1754539414.836322) can0 1FF#4B02010002000300
(1754539414.836324) can0 2FF#0100010002000300
(1754539414.838324) can0 3FF#0200020000000300
(1754539414.936401) can0 1FF#9B02010001000200
(1754539414.936402) can0 2FF#0200020001000200
(1754539414.938329) can0 3FF#0100010000000100
(1754539415.036375) can0 1FF#D402020001000300
(1754539415.036377) can0 2FF#0100010002000300
(1754539415.038337) can0 3FF#0300010000000300
(1754539415.136390) can0 1FF#9202020001000200
(1754539415.136391) can0 2FF#0200020001000200
(1754539415.138243) can0 3FF#0100010000000100
(1754539415.236400) can0 1FF#FE01020001000200
(1754539415.236402) can0 2FF#0100020002000300
(1754539415.238330) can0 3FF#0200010000000200
(1754539415.336327) can0 1FF#9801020001000200
(1754539415.336329) can0 2FF#0100010002000300
(1754539415.338340) can0 3FF#0200010000000200
(1754539415.436342) can0 1FF#7F01010001000200
(1754539415.436344) can0 2FF#0200020001000200
(1754539415.438251) can0 3FF#0200000000000100
(1754539415.536405) can0 1FF#D501000002000300
(1754539415.536407) can0 2FF#0100010001000200
(1754539415.538338) can0 3FF#0100020000000200
(1754539415.636412) can0 1FF#3B02010001000200
(1754539415.636414) can0 2FF#0200020001000200
(1754539415.638338) can0 3FF#0100010000000100
(1754539415.736398) can0 1FF#5E02010002000200
(1754539415.736400) can0 2FF#0100010002000300
(1754539415.738334) can0 3FF#0200010000000200
(1754539415.836409) can0 1FF#B602010002000300
(1754539415.836411) can0 2FF#0200020001000200
(1754539415.838344) can0 3FF#0100010000000100
(1754539415.936327) can0 1FF#8702020001000200
(1754539415.936329) can0 2FF#0200020001000200
(1754539415.938261) can0 3FF#0100010000000200
(1754539416.036328) can0 1FF#5E02020001000200
(1754539416.036330) can0 2FF#0200020001000200
(1754539416.038160) can0 3FF#0100010000000100
(1754539416.136316) can0 1FF#A001020001000200
(1754539416.136317) can0 2FF#0200020002000300
(1754539416.138261) can0 3FF#0100010000000200
(1754539416.236459) can0 1FF#8F01010002000200
(1754539416.236462) can0 2FF#0200010001000200
(1754539416.238270) can0 3FF#0100010000000200
(1754539416.336334) can0 1FF#8E01010002000300
(1754539416.336336) can0 2FF#0200020001000200
(1754539416.338242) can0 3FF#0200010000000200
(1754539416.436340) can0 1FF#5502010002000200
(1754539416.436341) can0 2FF#0200020001000200
(1754539416.438239) can0 3FF#0100010000000200
(1754539416.536334) can0 1FF#9E02000002000300
(1754539416.536335) can0 2FF#0100020001000100
(1754539416.538240) can0 3FF#0100020000000100
(1754539416.636333) can0 1FF#DA02020002000200
(1754539416.636335) can0 2FF#0200020001000200
(1754539416.638242) can0 3FF#0100010000000100
(1754539416.736328) can0 1FF#3C02030001000100
(1754539416.736329) can0 2FF#0200020001000300
(1754539416.738269) can0 3FF#0200000000000200
(1754539416.836434) can0 1FF#CF01010002000300
(1754539416.836437) can0 2FF#0200020001000100
(1754539416.838257) can0 3FF#0100020000000100
(1754539416.936231) can0 1FF#7401020001000200
(1754539416.936232) can0 2FF#0200020001000200
(1754539416.938245) can0 3FF#0100000000000100
(1754539417.036343) can0 1FF#EE01010002000300
(1754539417.036345) can0 2FF#0200020001000100
(1754539417.038257) can0 3FF#0100010000000100
(1754539417.136254) can0 1FF#0B02010001000200
(1754539417.136255) can0 2FF#0200020001000200
(1754539417.138223) can0 3FF#0100010000000100
(1754539417.236317) can0 1FF#C802010001000200
(1754539417.236319) can0 2FF#0200030001000100
(1754539417.238259) can0 3FF#0100010000000100
(1754539417.336237) can0 1FF#B602010001000200
(1754539417.336238) can0 2FF#0200030001000200
(1754539417.338257) can0 3FF#0100010000000100
(1754539417.436356) can0 1FF#A502010002000200
(1754539417.436358) can0 2FF#0200020001000200
(1754539417.438244) can0 3FF#0100010000000100
(1754539417.536532) can0 1FF#EE01010002000300
(1754539417.536533) can0 2FF#0200010001000300
(1754539417.538291) can0 3FF#0200010000000200
(1754539417.636448) can0 1FF#A801010002000300
(1754539417.636450) can0 2FF#0200020002000200
(1754539417.638291) can0 3FF#0200010000000200
(1754539417.736356) can0 1FF#A301010002000200
(1754539417.736358) can0 2FF#0100020001000200
(1754539417.738291) can0 3FF#0200010000000200
(1754539417.836339) can0 1FF#FC01010002000200
(1754539417.836341) can0 2FF#0200020001000100
(1754539417.838270) can0 3FF#0100010000000100
(1754539417.936294) can0 1FF#6F02010002000200
(1754539417.936295) can0 2FF#0200010001000200
(1754539417.938215) can0 3FF#0200010000000200
(1754539418.036312) can0 1FF#C802000002000300
(1754539418.036313) can0 2FF#0100010001000200
(1754539418.038246) can0 3FF#0100020000000200
(1754539418.136304) can0 1FF#7102010002000200
(1754539418.136305) can0 2FF#0200020001000200
(1754539418.138221) can0 3FF#0100010000000200
(1754539418.236302) can0 1FF#FF01020001000200
(1754539418.236305) can0 2FF#0100020002000200
(1754539418.238220) can0 3FF#0200010000000200
(1754539418.336314) can0 1FF#8901020001000200
(1754539418.336315) can0 2FF#0200020001000200
(1754539418.338222) can0 3FF#0200010000000200
(1754539418.436444) can0 1FF#A601020001000200
(1754539418.436446) can0 2FF#0100020002000200
(1754539418.438229) can0 3FF#0200010000000200
(1754539418.536303) can0 1FF#F101010002000300
(1754539418.536305) can0 2FF#0200010002000200
(1754539418.538225) can0 3FF#0100010000000200
(1754539418.636334) can0 1FF#9B02010001000200
(1754539418.636336) can0 2FF#0200030001000200
(1754539418.638227) can0 3FF#0100010000000100
(1754539418.736274) can0 1FF#AD02020001000200
(1754539418.736276) can0 2FF#0200010002000300
(1754539418.738241) can0 3FF#0200010000000300
(1754539418.836322) can0 1FF#B502020001000200
(1754539418.836325) can0 2FF#0300030001000200
(1754539418.838260) can0 3FF#0100000000000100
(1754539418.936317) can0 1FF#6A02020001000200
(1754539418.936319) can0 2FF#0200020001000200
(1754539418.938233) can0 3FF#0100010000000100
(1754539419.036515) can0 1FF#C401010002000300
(1754539419.036516) can0 2FF#0100010002000300
(1754539419.038237) can0 3FF#0200010000000200
(1754539419.136304) can0 1FF#7201010002000300
(1754539419.136305) can0 2FF#0100010001000200
(1754539419.138232) can0 3FF#0100010000000200
(1754539419.236312) can0 1FF#9601010001000200
(1754539419.236314) can0 2FF#0200020001000200
(1754539419.238211) can0 3FF#0100010000000200
(1754539419.336329) can0 1FF#DF01020001000200
(1754539419.336331) can0 2FF#0200020001000200
(1754539419.338271) can0 3FF#0200010000000200
(1754539419.436361) can0 1FF#8902020001000200
(1754539419.436363) can0 2FF#0300020001000200
(1754539419.438303) can0 3FF#0100000000000100
(1754539419.536347) can0 1FF#C902010002000300
(1754539419.536348) can0 2FF#0200020001000100
(1754539419.538300) can0 3FF#0100010000000100
(1754539419.636432) can0 1FF#C402010002000300
(1754539419.636434) can0 2FF#0100010002000200
(1754539419.638278) can0 3FF#0200020000000200
(1754539419.736362) can0 1FF#3102010002000200
(1754539419.736364) can0 2FF#0200030001000200
(1754539419.738276) can0 3FF#0100010000000100
(1754539419.836295) can0 1FF#C801010002000300
(1754539419.836297) can0 2FF#0100010002000300
(1754539419.838225) can0 3FF#0200010000000300
(1754539419.936449) can0 1FF#8D01010002000300
(1754539419.936450) can0 2FF#0200020001000100
(1754539419.938224) can0 3FF#0100020000000100
(1754539420.036320) can0 1FF#A201020001000100
(1754539420.036321) can0 2FF#0200030002000200
(1754539420.038226) can0 3FF#0100000000000100
(1754539420.136296) can0 1FF#3B02010002000300
(1754539420.136298) can0 2FF#0100010002000300
(1754539420.138226) can0 3FF#0300010000000300
(1754539420.236295) can0 1FF#6A02010002000300
(1754539420.236297) can0 2FF#0200010001000200
(1754539420.238201) can0 3FF#0100020000000200
(1754539420.336290) can0 1FF#CC02010001000200
(1754539420.336292) can0 2FF#0200020000000100
(1754539420.338225) can0 3FF#0100010000000100
(1754539420.436274) can0 1FF#A802010002000300
(1754539420.436276) can0 2FF#0200020001000100
(1754539420.438204) can0 3FF#0000020000000100
(1754539420.536304) can0 1FF#9002010002000300
(1754539420.536305) can0 2FF#0100020001000200
(1754539420.538216) can0 3FF#0200010000000200
(1754539420.636276) can0 1FF#D601010002000300
(1754539420.636278) can0 2FF#0200020000000100
(1754539420.638213) can0 3FF#0100020000000100
(1754539420.736280) can0 1FF#9701010002000200
(1754539420.736282) can0 2FF#0100020002000200
(1754539420.738099) can0 3FF#0200010000000200
(1754539420.836398) can0 1FF#8901010002000300
(1754539420.836399) can0 2FF#0100010002000200
(1754539420.838225) can0 3FF#0200020000000200
(1754539420.936289) can0 1FF#6302010002000200
(1754539420.936290) can0 2FF#0200020001000100
(1754539420.938219) can0 3FF#0100010000000100
(1754539421.036291) can0 1FF#9002010002000200
(1754539421.036293) can0 2FF#0200010001000200
(1754539421.038220) can0 3FF#0100010000000100
(1754539421.136304) can0 1FF#F802010001000200
(1754539421.136306) can0 2FF#0200020001000200
(1754539421.138249) can0 3FF#0200010000000200
(1754539421.236314) can0 1FF#A102020001000200
(1754539421.236316) can0 2FF#0200020001000200
(1754539421.238225) can0 3FF#0100010000000100
(1754539421.336274) can0 1FF#4902020002000300
(1754539421.336275) can0 2FF#0200020001000200
(1754539421.338250) can0 3FF#0100010000000100
(1754539421.436343) can0 1FF#9201020001000100
(1754539421.436345) can0 2FF#0300020001000200
(1754539421.438249) can0 3FF#0100010000000100
(1754539421.536345) can0 1FF#9401010002000200
(1754539421.536347) can0 2FF#0200020001000300
(1754539421.538259) can0 3FF#0200010000000100
(1754539421.636334) can0 1FF#D501010001000300
(1754539421.636336) can0 2FF#0200020001000200
(1754539421.638262) can0 3FF#0200010000000200
(1754539421.736300) can0 1FF#4402010002000200
(1754539421.736301) can0 2FF#0100010002000200
(1754539421.738202) can0 3FF#0200010000000200
(1754539421.836271) can0 1FF#7802020001000200
(1754539421.836273) can0 2FF#0200020001000200
(1754539421.838203) can0 3FF#0200010000000200
(1754539421.936264) can0 1FF#D702010002000200
(1754539421.936265) can0 2FF#0200020001000200
(1754539421.938180) can0 3FF#0200010000000200
(1754539422.036278) can0 1FF#9102010001000200
(1754539422.036279) can0 2FF#0200020001000200
(1754539422.038180) can0 3FF#0200010000000100
(1754539422.136402) can0 1FF#F501020002000200
(1754539422.136404) can0 2FF#0200010001000200
(1754539422.138215) can0 3FF#0200010000000200
(1754539422.236278) can0 1FF#7F01010003000300
(1754539422.236280) can0 2FF#0200020001000100
(1754539422.238221) can0 3FF#0100020000000100
(1754539422.336244) can0 1FF#E701010002000300
(1754539422.336245) can0 2FF#0100010001000200
(1754539422.338195) can0 3FF#0100020000000200
(1754539422.436249) can0 1FF#0102010001000200
(1754539422.436250) can0 2FF#0200020001000200
(1754539422.438214) can0 3FF#0100010000000100
(1754539422.536284) can0 1FF#9402010001000100
(1754539422.536286) can0 2FF#0300030000000100
(1754539422.538222) can0 3FF#0100000000000000
(1754539422.636281) can0 1FF#9702010002000200
(1754539422.636283) can0 2FF#0100020001000200
(1754539422.638195) can0 3FF#0200020000000200
(1754539422.736298) can0 1FF#0103010002000200
(1754539422.736300) can0 2FF#0200020002000200
(1754539422.738200) can0 3FF#0200010000000200
(1754539422.836444) can0 1FF#4402030000000100
(1754539422.836445) can0 2FF#0300020001000200
(1754539422.838246) can0 3FF#0100000000000100
(1754539422.936268) can0 1FF#F601010002000300
(1754539422.936269) can0 2FF#0100010002000200
(1754539422.938191) can0 3FF#0100020000000200
(1754539423.036347) can0 1FF#A001020002000200
(1754539423.036349) can0 2FF#0200020001000200
(1754539423.038207) can0 3FF#0100010000000200
(1754539423.136300) can0 1FF#8801010002000200
(1754539423.136302) can0 2FF#0200020001000200
(1754539423.138195) can0 3FF#0100010000000200
(1754539423.236384) can0 1FF#C301020001000200
(1754539423.236385) can0 2FF#0200020001000200
(1754539423.238214) can0 3FF#0200000000000200
(1754539423.336351) can0 1FF#7002010001000200
(1754539423.336353) can0 2FF#0300030000000100
(1754539423.338261) can0 3FF#0100010000000100
(1754539423.436292) can0 1FF#B702020001000100
(1754539423.436293) can0 2FF#0200020001000200
(1754539423.438241) can0 3FF#0100010000000200
(1754539423.536310) can0 1FF#D002020001000200
(1754539423.536312) can0 2FF#0200020001000200
(1754539423.538233) can0 3FF#0200000000000200
(1754539423.636255) can0 1FF#4B02010001000200
(1754539423.636256) can0 2FF#0200020001000200
(1754539423.638182) can0 3FF#0100010000000100
(1754539423.736266) can0 1FF#B801020001000200
(1754539423.736267) can0 2FF#0200020001000200
(1754539423.738176) can0 3FF#0100010000000200
(1754539423.836269) can0 1FF#8301010002000200
(1754539423.836271) can0 2FF#0100020002000200
(1754539423.838196) can0 3FF#0200010000000200
(1754539423.936195) can0 1FF#BF01010001000200
(1754539423.936196) can0 2FF#0200020001000200
(1754539423.938179) can0 3FF#0100010000000200
(1754539424.036274) can0 1FF#6802010002000300
(1754539424.036276) can0 2FF#0200020001000200
(1754539424.038165) can0 3FF#0100010000000100
(1754539424.136259) can0 1FF#BD02010002000300
(1754539424.136261) can0 2FF#0200020001000200
(1754539424.138168) can0 3FF#0100010000000200
(1754539424.236397) can0 1FF#BA02020001000200
(1754539424.236400) can0 2FF#0200020001000200
(1754539424.238173) can0 3FF#0100010000000200
(1754539424.336236) can0 1FF#9C02020001000200
(1754539424.336237) can0 2FF#0200020001000200
(1754539424.338182) can0 3FF#0200010000000100
(1754539424.436267) can0 1FF#EE01020002000300
(1754539424.436269) can0 2FF#0200020002000200
(1754539424.438174) can0 3FF#0100010000000200
(1754539424.536240) can0 1FF#6901010001000200
(1754539424.536241) can0 2FF#0300030000000100
(1754539424.538176) can0 3FF#0100010000000100
(1754539424.636239) can0 1FF#8E01010002000300
(1754539424.636240) can0 2FF#0100010002000200
(1754539424.638176) can0 3FF#0200010000000200
(1754539424.736236) can0 1FF#D001010002000300
(1754539424.736237) can0 2FF#0100010002000300
(1754539424.738174) can0 3FF#0200020000000200
(1754539424.836230) can0 1FF#8402010002000200
(1754539424.836231) can0 2FF#0200020001000200
(1754539424.838154) can0 3FF#0200010000000200
(1754539424.936246) can0 1FF#9402010002000200
(1754539424.936247) can0 2FF#0100020001000200
(1754539424.938181) can0 3FF#0100010000000100
(1754539425.036399) can0 1FF#CC02010002000200
(1754539425.036400) can0 2FF#0200020001000100
(1754539425.038193) can0 3FF#0100010000000100
(1754539425.136301) can0 1FF#1C02020001000200
(1754539425.136303) can0 2FF#0200020001000200
(1754539425.138211) can0 3FF#0200010000000200
(1754539425.236462) can0 1FF#CB01010002000200
(1754539425.236464) can0 2FF#0200020001000200
(1754539425.238219) can0 3FF#0200010000000200
(1754539425.336237) can0 1FF#7F01010001000200
(1754539425.336239) can0 2FF#0200030001000200
(1754539425.338222) can0 3FF#0100010000000100
(1754539425.436316) can0 1FF#A701010002000300
(1754539425.436317) can0 2FF#0200010001000200
(1754539425.438213) can0 3FF#0100010000000200
(1754539425.536288) can0 1FF#2202020001000100
(1754539425.536289) can0 2FF#0300030000000100
(1754539425.538218) can0 3FF#0100000000000100
(1754539425.636194) can0 1FF#B902010001000100
(1754539425.636195) can0 2FF#0300030001000100
(1754539425.638160) can0 3FF#0100010000000100
(1754539425.736242) can0 1FF#B902010002000300
(1754539425.736244) can0 2FF#0100010002000300
(1754539425.738168) can0 3FF#0300010000000200
(1754539425.836263) can0 1FF#8602020001000200
(1754539425.836264) can0 2FF#0100020002000200
(1754539425.838196) can0 3FF#0200010000000200
(1754539425.936268) can0 1FF#0C02010002000200
(1754539425.936269) can0 2FF#0200020001000100
(1754539425.938169) can0 3FF#0100010000000100
(1754539426.036181) can0 1FF#C001010001000200
(1754539426.036182) can0 2FF#0200020001000200
(1754539426.038165) can0 3FF#0200010000000100
(1754539426.136238) can0 1FF#6B01010002000200
(1754539426.136239) can0 2FF#0200020000000100
(1754539426.138178) can0 3FF#0100010000000100
(1754539426.236242) can0 1FF#CC01010002000200
(1754539426.236243) can0 2FF#0200020001000100
(1754539426.238191) can0 3FF#0100010000000100
(1754539426.336178) can0 1FF#F701020001000100
(1754539426.336179) can0 2FF#0200030001000200
(1754539426.338151) can0 3FF#0200000000000100
(1754539426.436218) can0 1FF#AE02020001000200
(1754539426.436219) can0 2FF#0100020001000200
(1754539426.438155) can0 3FF#0300000000000200
(1754539426.536249) can0 1FF#9A02020001000200
(1754539426.536250) can0 2FF#0200020001000100
(1754539426.538161) can0 3FF#0100010000000100
(1754539426.636250) can0 1FF#FD02010001000200
(1754539426.636251) can0 2FF#0200020001000200
(1754539426.638160) can0 3FF#0200010000000200
(1754539426.736238) can0 1FF#6602020001000200
(1754539426.736239) can0 2FF#0100010002000200
(1754539426.738170) can0 3FF#0300010000000200
(1754539426.836252) can0 1FF#1302020001000100
(1754539426.836253) can0 2FF#0200030001000200
(1754539426.838162) can0 3FF#0200000000000200
(1754539426.936254) can0 1FF#B601010002000300
(1754539426.936255) can0 2FF#0100020002000100
(1754539426.938159) can0 3FF#0100010000000100
(1754539427.036239) can0 1FF#9401010001000200
(1754539427.036240) can0 2FF#0200020001000200
(1754539427.038170) can0 3FF#0100010000000100
(1754539427.136261) can0 1FF#D401010001000200
(1754539427.136262) can0 2FF#0200020001000200
(1754539427.138194) can0 3FF#0100010000000100
(1754539427.236290) can0 1FF#7B02010002000300
(1754539427.236292) can0 2FF#0100010002000200
(1754539427.238198) can0 3FF#0100020000000200
(1754539427.336222) can0 1FF#7B02010002000200
(1754539427.336223) can0 2FF#0200020001000200
(1754539427.338190) can0 3FF#0100010000000100
(1754539427.436373) can0 1FF#D602010002000300
(1754539427.436375) can0 2FF#0200010001000100
(1754539427.438180) can0 3FF#0100020000000200
(1754539427.536249) can0 1FF#7A02020001000200
(1754539427.536251) can0 2FF#0200020001000200
(1754539427.538152) can0 3FF#0200010000000200
(1754539427.636359) can0 1FF#3D02020001000200
(1754539427.636361) can0 2FF#0200020001000200
(1754539427.638158) can0 3FF#0200000000000200
(1754539427.736180) can0 1FF#A001010002000200
(1754539427.736182) can0 2FF#0200020001000200
(1754539427.738163) can0 3FF#0200010000000200
(1754539427.836313) can0 1FF#9601010001000200
(1754539427.836315) can0 2FF#0200020001000200
(1754539427.838139) can0 3FF#0200010000000100
(1754539427.936214) can0 1FF#1E02010001000200
(1754539427.936216) can0 2FF#0200030001000100
(1754539427.938157) can0 3FF#0100010000000100
(1754539428.036252) can0 1FF#8202010001000200
(1754539428.036253) can0 2FF#0200020001000200
(1754539428.038158) can0 3FF#0200010000000200
(1754539428.136228) can0 1FF#8A02020001000200
(1754539428.136229) can0 2FF#0100010002000300
(1754539428.138162) can0 3FF#0300010000000200
(1754539428.236236) can0 1FF#B002010002000200
(1754539428.236238) can0 2FF#0200020001000200
(1754539428.238164) can0 3FF#0100010000000200
(1754539428.336172) can0 1FF#2E02020002000200
(1754539428.336174) can0 2FF#0200030000000100
(1754539428.338192) can0 3FF#0100010000000100
(1754539428.436230) can0 1FF#C901010001000200
(1754539428.436232) can0 2FF#0200020001000200
(1754539428.438139) can0 3FF#0200010000000100
(1754539428.536228) can0 1FF#8C01020001000200
(1754539428.536230) can0 2FF#0200020001000200
(1754539428.538142) can0 3FF#0200010000000200
(1754539428.636212) can0 1FF#8901020001000200
(1754539428.636213) can0 2FF#0200010001000300
(1754539428.638144) can0 3FF#0200010000000200
(1754539428.736235) can0 1FF#1B02010001000200
(1754539428.736236) can0 2FF#0200020001000100
(1754539428.738173) can0 3FF#0100010000000100
(1754539428.836226) can0 1FF#9902010002000300
(1754539428.836228) can0 2FF#0200020001000200
(1754539428.838145) can0 3FF#0200010000000200
(1754539428.936216) can0 1FF#C502010001000200
(1754539428.936218) can0 2FF#0200020001000200
(1754539428.938137) can0 3FF#0100010000000100
(1754539429.036397) can0 1FF#8602020002000200
(1754539429.036398) can0 2FF#0100010002000200
(1754539429.038179) can0 3FF#0200010000000200
(1754539429.136294) can0 1FF#6102010001000200
(1754539429.136296) can0 2FF#0200020001000200
(1754539429.138201) can0 3FF#0200010000000200
(1754539429.236257) can0 1FF#C401020001000200
(1754539429.236259) can0 2FF#0200020002000200
(1754539429.238176) can0 3FF#0200010000000200
(1754539429.336211) can0 1FF#B101020001000200
(1754539429.336212) can0 2FF#0200020001000200
(1754539429.338177) can0 3FF#0200010000000200
(1754539429.436260) can0 1FF#9301020001000100
(1754539429.436262) can0 2FF#0300030000000200
(1754539429.438180) can0 3FF#0200000000000100
(1754539429.536356) can0 1FF#AE01010001000200
(1754539429.536357) can0 2FF#0200020001000200
(1754539429.538139) can0 3FF#0100010000000200
(1754539429.636235) can0 1FF#2E02010002000200
(1754539429.636237) can0 2FF#0200020001000100
(1754539429.638153) can0 3FF#0100010000000100
(1754539429.736171) can0 1FF#C202020001000100
(1754539429.736173) can0 2FF#0300030001000200
(1754539429.738161) can0 3FF#0100010000000100
(1754539429.836216) can0 1FF#9C02010001000200
(1754539429.836218) can0 2FF#0200020001000100
(1754539429.838142) can0 3FF#0100010000000100
(1754539429.936208) can0 1FF#9502010001000200
(1754539429.936209) can0 2FF#0200020001000100
(1754539429.938117) can0 3FF#0200010000000100
(1754539430.036229) can0 1FF#1402020001000200
(1754539430.036230) can0 2FF#0200020001000100
(1754539430.038166) can0 3FF#0100010000000100
(1754539430.136410) can0 1FF#D001020001000200
(1754539430.136411) can0 2FF#0200020001000200
(1754539430.138141) can0 3FF#0100010000000200
(1754539430.236307) can0 1FF#9201010001000200
(1754539430.236309) can0 2FF#0200020001000100
(1754539430.238150) can0 3FF#0100010000000100
(1754539430.336117) can0 1FF#8E01010002000300
(1754539430.336118) can0 2FF#0200020001000200
(1754539430.338119) can0 3FF#0100010000000100
(1754539430.436219) can0 1FF#9F01020002000200
(1754539430.436221) can0 2FF#0200020001000200
(1754539430.438149) can0 3FF#0200010000000200
(1754539430.536211) can0 1FF#3E02010001000200
(1754539430.536213) can0 2FF#0200020001000200
(1754539430.538122) can0 3FF#0100010000000100
(1754539430.636215) can0 1FF#6102010001000200
(1754539430.636216) can0 2FF#0200020002000200
(1754539430.638151) can0 3FF#0100010000000200
(1754539430.736193) can0 1FF#EA02010001000200
(1754539430.736194) can0 2FF#0200020001000200
(1754539430.738123) can0 3FF#0200010000000200
(1754539430.836293) can0 1FF#9402010002000200
(1754539430.836296) can0 2FF#0100020001000200
(1754539430.838144) can0 3FF#0200010000000100
(1754539430.936208) can0 1FF#3D02010001000200
(1754539430.936210) can0 2FF#0200020001000100
(1754539430.938161) can0 3FF#0100010000000100
(1754539431.036176) can0 1FF#AE01010002000300
(1754539431.036177) can0 2FF#0200020001000200
(1754539431.038109) can0 3FF#0100020000000100
(1754539431.136224) can0 1FF#9901010002000200
(1754539431.136226) can0 2FF#0200020001000200
(1754539431.138136) can0 3FF#0100020000000100
(1754539431.236234) can0 1FF#B701010001000300
(1754539431.236236) can0 2FF#0200020001000200
(1754539431.238181) can0 3FF#0100010000000200
(1754539431.336172) can0 1FF#5E02010001000200
(1754539431.336173) can0 2FF#0200020002000200
(1754539431.338162) can0 3FF#0200010000000200
(1754539431.436255) can0 1FF#6202020001000100
(1754539431.436257) can0 2FF#0300030001000200
(1754539431.438166) can0 3FF#0100010000000100
(1754539431.536197) can0 1FF#DD02020002000200
(1754539431.536199) can0 2FF#0200010001000200
(1754539431.538163) can0 3FF#0200010000000200
(1754539431.636204) can0 1FF#C902010002000200
(1754539431.636205) can0 2FF#0100020002000200
(1754539431.638122) can0 3FF#0200010000000200
(1754539431.736135) can0 1FF#5E02020001000200
(1754539431.736136) can0 2FF#0200020001000100
(1754539431.738134) can0 3FF#0200010000000200
(1754539431.836215) can0 1FF#1402010002000200
(1754539431.836216) can0 2FF#0200020001000100
(1754539431.838122) can0 3FF#0100020000000100
(1754539431.936171) can0 1FF#9801010002000300
(1754539431.936172) can0 2FF#0100010002000300
(1754539431.938131) can0 3FF#0200010000000200
(1754539432.036197) can0 1FF#9301010001000200
(1754539432.036199) can0 2FF#0200020001000200
(1754539432.038102) can0 3FF#0100010000000200
(1754539432.136217) can0 1FF#0002010002000200
(1754539432.136219) can0 2FF#0200020001000200
(1754539432.138133) can0 3FF#0100010000000100
(1754539432.236273) can0 1FF#6E02010002000200
(1754539432.236275) can0 2FF#0200020001000100
(1754539432.238139) can0 3FF#0100010000000100
(1754539432.336146) can0 1FF#8C02010001000200
(1754539432.336148) can0 2FF#0200020001000100
(1754539432.338132) can0 3FF#0100010000000100
(1754539432.436169) can0 1FF#CD02010002000200
(1754539432.436170) can0 2FF#0200020001000200
(1754539432.438107) can0 3FF#0100010000000100
(1754539432.536201) can0 1FF#7302010001000200
(1754539432.536202) can0 2FF#0100020001000200
(1754539432.538107) can0 3FF#0200010000000100
(1754539432.636208) can0 1FF#7802010002000300
(1754539432.636209) can0 2FF#0200020001000200
(1754539432.638111) can0 3FF#0100010000000100
(1754539432.736202) can0 1FF#CB01020002000200
(1754539432.736203) can0 2FF#0200020001000200
(1754539432.738089) can0 3FF#0200010000000100
(1754539432.836180) can0 1FF#9301010001000200
(1754539432.836181) can0 2FF#0200020001000200
(1754539432.838087) can0 3FF#0100010000000100
(1754539432.936060) can0 1FF#C001010001000200
(1754539432.936061) can0 2FF#0200020001000200
(1754539432.938005) can0 3FF#0100010000000100
(1754539433.036117) can0 1FF#5402010001000200
(1754539433.036119) can0 2FF#0200020001000200
(1754539433.038096) can0 3FF#0100010000000200
(1754539433.136183) can0 1FF#A702010001000200
(1754539433.136185) can0 2FF#0200020001000100
(1754539433.138113) can0 3FF#0100010000000100
(1754539433.236200) can0 1FF#F302010002000200
(1754539433.236202) can0 2FF#0100010001000200
(1754539433.238156) can0 3FF#0200010000000200
(1754539433.336154) can0 1FF#5702020001000200
(1754539433.336155) can0 2FF#0200020001000200
(1754539433.338125) can0 3FF#0100010000000100
(1754539433.436244) can0 1FF#1B02020001000200
(1754539433.436246) can0 2FF#0200020002000200
(1754539433.438154) can0 3FF#0200000000000200
(1754539433.536221) can0 1FF#7C01010001000200
(1754539433.536222) can0 2FF#0300020001000200
(1754539433.538155) can0 3FF#0200010000000200
(1754539433.636183) can0 1FF#A901010002000200
(1754539433.636185) can0 2FF#0100010002000200
(1754539433.638125) can0 3FF#0200010000000300
(1754539433.736196) can0 1FF#2202010002000200
(1754539433.736198) can0 2FF#0100010001000200
(1754539433.738100) can0 3FF#0200010000000200
(1754539433.836171) can0 1FF#BA02010001000300
(1754539433.836173) can0 2FF#0200020001000200
(1754539433.838104) can0 3FF#0100010000000200
(1754539433.936195) can0 1FF#A602010002000200
(1754539433.936197) can0 2FF#0200020001000200
(1754539433.938107) can0 3FF#0100010000000200
(1754539434.036186) can0 1FF#4F02010002000300
(1754539434.036187) can0 2FF#0200020001000100
(1754539434.038081) can0 3FF#0100020000000100
(1754539434.136181) can0 1FF#A901020001000200
(1754539434.136182) can0 2FF#0200020001000200
(1754539434.138124) can0 3FF#0100010000000200
(1754539434.236189) can0 1FF#8701020001000200
(1754539434.236191) can0 2FF#0200030001000100
(1754539434.238114) can0 3FF#0100010000000100
(1754539434.336092) can0 1FF#EA01010002000200
(1754539434.336094) can0 2FF#0200020001000200
(1754539434.338089) can0 3FF#0200010000000200
(1754539434.436183) can0 1FF#8E02010002000300
(1754539434.436185) can0 2FF#0100010001000200
(1754539434.438090) can0 3FF#0200010000000200
(1754539434.536253) can0 1FF#9102010002000300
(1754539434.536254) can0 2FF#0100010002000200
(1754539434.538069) can0 3FF#0100020000000200
(1754539434.636140) can0 1FF#D702020001000200
(1754539434.636141) can0 2FF#0200020001000200
(1754539434.638093) can0 3FF#0100010000000100
(1754539434.736169) can0 1FF#3402030000000100
(1754539434.736170) can0 2FF#0300030001000200
(1754539434.738118) can0 3FF#0200000000000100
(1754539434.836272) can0 1FF#D901010002000300
(1754539434.836274) can0 2FF#0100010002000200
(1754539434.838072) can0 3FF#0200020000000200
(1754539434.936171) can0 1FF#7D01010002000300
(1754539434.936173) can0 2FF#0100010002000300
(1754539434.938103) can0 3FF#0200010000000200
(1754539435.036172) can0 1FF#9101010002000200
(1754539435.036174) can0 2FF#0100020001000200
(1754539435.038100) can0 3FF#0100010000000200
(1754539435.136193) can0 1FF#3802010002000300
(1754539435.136196) can0 2FF#0200010001000200
(1754539435.138127) can0 3FF#0200010000000200
(1754539435.236201) can0 1FF#CD02010002000200
(1754539435.236203) can0 2FF#0100020002000200
(1754539435.238135) can0 3FF#0100010000000200
(1754539435.336179) can0 1FF#8702010002000300
(1754539435.336181) can0 2FF#0200020001000200
(1754539435.338138) can0 3FF#0100010000000100
(1754539435.436230) can0 1FF#8502020002000200
(1754539435.436232) can0 2FF#0200010001000200
(1754539435.438162) can0 3FF#0100010000000200
(1754539435.536225) can0 1FF#0902020001000200
(1754539435.536226) can0 2FF#0300030001000100
(1754539435.538134) can0 3FF#0100010000000100
(1754539435.636175) can0 1FF#D401010001000200
(1754539435.636177) can0 2FF#0300030000000100
(1754539435.638082) can0 3FF#0100010000000100
(1754539435.736287) can0 1FF#8301010002000200
(1754539435.736288) can0 2FF#0200020001000100
(1754539435.738101) can0 3FF#0100010000000100
(1754539435.836186) can0 1FF#C501010002000300
(1754539435.836187) can0 2FF#0100010001000200
(1754539435.838085) can0 3FF#0100020000000200
(1754539435.936295) can0 1FF#1F02010002000300
(1754539435.936296) can0 2FF#0100010002000300
(1754539435.938127) can0 3FF#0200010000000200
(1754539436.036157) can0 1FF#8F02010002000200
(1754539436.036159) can0 2FF#0200020001000200
(1754539436.038070) can0 3FF#0100010000000100
(1754539436.136293) can0 1FF#A502010001000100
(1754539436.136295) can0 2FF#0200020001000200
(1754539436.138104) can0 3FF#0100010000000200
(1754539436.236151) can0 1FF#C002010002000300
(1754539436.236154) can0 2FF#0200020001000100
(1754539436.238099) can0 3FF#0100010000000100
(1754539436.336169) can0 1FF#6D02010002000300
(1754539436.336171) can0 2FF#0100020001000200
(1754539436.338076) can0 3FF#0100010000000100
(1754539436.436163) can0 1FF#EF01010002000200
(1754539436.436164) can0 2FF#0100020001000100
(1754539436.438095) can0 3FF#0100010000000100
(1754539436.536148) can0 1FF#8801010002000200
(1754539436.536149) can0 2FF#0200020001000100
(1754539436.538103) can0 3FF#0100010000000100
(1754539436.636143) can0 1FF#8D01010001000300
(1754539436.636144) can0 2FF#0100010002000300
(1754539436.638073) can0 3FF#0200010000000200
(1754539436.736176) can0 1FF#2502010002000300
(1754539436.736177) can0 2FF#0100020002000300
(1754539436.738079) can0 3FF#0200010000000200
(1754539436.836273) can0 1FF#4F02010002000200
(1754539436.836275) can0 2FF#0200020001000100
(1754539436.838086) can0 3FF#0100010000000100
(1754539436.936275) can0 1FF#B502010002000300
(1754539436.936278) can0 2FF#0100010001000200
(1754539436.938069) can0 3FF#0200020000000200
(1754539437.036177) can0 1FF#9F02020000000100
(1754539437.036179) can0 2FF#0300020001000200
(1754539437.038101) can0 3FF#0100010000000100
(1754539437.136133) can0 1FF#AE02010002000300
(1754539437.136135) can0 2FF#0200020001000200
(1754539437.138060) can0 3FF#0100010000000200
(1754539437.236156) can0 1FF#1002010002000300
(1754539437.236158) can0 2FF#0100010002000200
(1754539437.238062) can0 3FF#0200020000000200
(1754539437.336179) can0 1FF#D201010001000200
(1754539437.336180) can0 2FF#0200020001000200
(1754539437.338114) can0 3FF#0100010000000100
(1754539437.436182) can0 1FF#7601020001000200
(1754539437.436184) can0 2FF#0200020001000200
(1754539437.438093) can0 3FF#0100010000000100
(1754539437.536303) can0 1FF#0602000002000300
(1754539437.536304) can0 2FF#0100020002000200
(1754539437.538121) can0 3FF#0200010000000200
(1754539437.636187) can0 1FF#6202010002000300
(1754539437.636188) can0 2FF#0200010001000200
(1754539437.638092) can0 3FF#0200010000000200
(1754539437.736168) can0 1FF#C202010002000200
(1754539437.736170) can0 2FF#0100020001000200
(1754539437.738069) can0 3FF#0100020000000100
(1754539437.836267) can0 1FF#7302010002000200
(1754539437.836268) can0 2FF#0100020001000200
(1754539437.838074) can0 3FF#0100010000000200
(1754539437.936164) can0 1FF#8702020002000200
(1754539437.936166) can0 2FF#0200020001000200
(1754539437.938075) can0 3FF#0200010000000200
(1754539438.036166) can0 1FF#B801020001000200
(1754539438.036168) can0 2FF#0200020001000100
(1754539438.038101) can0 3FF#0100010000000100
(1754539438.136158) can0 1FF#A001020001000100
(1754539438.136159) can0 2FF#0200030001000200
(1754539438.138073) can0 3FF#0100010000000100
(1754539438.236268) can0 1FF#9C01020001000200
(1754539438.236270) can0 2FF#0200020001000200
(1754539438.238056) can0 3FF#0100010000000100
(1754539438.336137) can0 1FF#1302010001000200
(1754539438.336139) can0 2FF#0200020001000100
(1754539438.338080) can0 3FF#0100010000000100
(1754539438.436153) can0 1FF#7A02010002000300
(1754539438.436155) can0 2FF#0100010002000200
(1754539438.438084) can0 3FF#0200010000000200
(1754539438.536157) can0 1FF#F402010001000200
(1754539438.536158) can0 2FF#0200020001000200
(1754539438.538059) can0 3FF#0100010000000100
(1754539438.636105) can0 1FF#B302010002000200
(1754539438.636106) can0 2FF#0200020001000300
(1754539438.638057) can0 3FF#0200010000000100
(1754539438.736151) can0 1FF#A802020001000300
(1754539438.736153) can0 2FF#0200010002000200
(1754539438.738067) can0 3FF#0200010000000200
(1754539438.836248) can0 1FF#1A02020001000200
(1754539438.836249) can0 2FF#0200020001000200
(1754539438.838073) can0 3FF#0200010000000100
(1754539438.936113) can0 1FF#9801010002000200
(1754539438.936114) can0 2FF#0200020001000200
(1754539438.938067) can0 3FF#0100010000000100
(1754539439.036161) can0 1FF#9501010001000200
(1754539439.036162) can0 2FF#0200020001000200
(1754539439.038067) can0 3FF#0200010000000200
(1754539439.136253) can0 1FF#0902010002000200
(1754539439.136255) can0 2FF#0200020001000200
(1754539439.138054) can0 3FF#0200010000000100
(1754539439.236169) can0 1FF#3D02010002000200
(1754539439.236171) can0 2FF#0200010001000200
(1754539439.238071) can0 3FF#0200010000000200
(1754539439.336155) can0 1FF#C102010001000200
(1754539439.336156) can0 2FF#0200020001000200
(1754539439.338072) can0 3FF#0200010000000200
(1754539439.436164) can0 1FF#D402020002000300
(1754539439.436166) can0 2FF#0200010001000200
(1754539439.438068) can0 3FF#0100020000000200
(1754539439.536145) can0 1FF#CE02020001000200
(1754539439.536147) can0 2FF#0200020001000100
(1754539439.538099) can0 3FF#0100010000000100
(1754539439.636181) can0 1FF#4A02020002000200
(1754539439.636182) can0 2FF#0200020001000200
(1754539439.638098) can0 3FF#0100010000000200
(1754539439.736166) can0 1FF#BA01010001000200
(1754539439.736168) can0 2FF#0200020001000200
(1754539439.738077) can0 3FF#0200010000000200
(1754539439.836154) can0 1FF#8701020001000200
(1754539439.836156) can0 2FF#0100020001000200
(1754539439.838074) can0 3FF#0100000000000100
(1754539439.936121) can0 1FF#9301010002000200
(1754539439.936122) can0 2FF#0100020002000200
(1754539439.938052) can0 3FF#0200010000000200
(1754539440.036125) can0 1FF#D601000002000200
(1754539440.036127) can0 2FF#0200020001000100
(1754539440.038064) can0 3FF#0100010000000100
(1754539440.136330) can0 1FF#5702010001000200
(1754539440.136331) can0 2FF#0200010001000200
(1754539440.138037) can0 3FF#0200010000000200
(1754539440.236132) can0 1FF#8202010002000200
(1754539440.236134) can0 2FF#0200020001000200
(1754539440.238074) can0 3FF#0100010000000200
(1754539440.336111) can0 1FF#AD02010002000200
(1754539440.336112) can0 2FF#0100010002000300
(1754539440.338027) can0 3FF#0200010000000200
(1754539440.436051) can0 1FF#AF02020001000200
(1754539440.436051) can0 2FF#0200020001000200
(1754539440.438201) can0 3FF#0200010000000200
(1754539440.536127) can0 1FF#FD01010002000300
(1754539440.536129) can0 2FF#0100010001000200
(1754539440.538046) can0 3FF#0100020000000200
(1754539440.636135) can0 1FF#C801010001000200
(1754539440.636137) can0 2FF#0200020001000200
(1754539440.638038) can0 3FF#0200010000000200
(1754539440.736129) can0 1FF#8E01020001000100
(1754539440.736131) can0 2FF#0300030000000100
(1754539440.738048) can0 3FF#0100010000000100
(1754539440.836105) can0 1FF#D301010002000300
(1754539440.836107) can0 2FF#0200020001000100
(1754539440.838048) can0 3FF#0100010000000100
(1754539440.936125) can0 1FF#0D02020001000100
(1754539440.936127) can0 2FF#0200020001000200
(1754539440.938053) can0 3FF#0200000000000200
(1754539441.036123) can0 1FF#4702000002000300
(1754539441.036125) can0 2FF#0100010001000200
(1754539441.038053) can0 3FF#0200010000000200
(1754539441.136146) can0 1FF#7A02010002000300
(1754539441.136148) can0 2FF#0100010002000300
(1754539441.138044) can0 3FF#0200010000000200
(1754539441.236127) can0 1FF#C402010002000200
(1754539441.236128) can0 2FF#0100010002000200
(1754539441.238053) can0 3FF#0200010000000200
(1754539441.336125) can0 1FF#5502010002000300
(1754539441.336127) can0 2FF#0200020001000100
(1754539441.338023) can0 3FF#0100010000000100
(1754539441.436127) can0 1FF#5F02020001000200
(1754539441.436128) can0 2FF#0200020001000200
(1754539441.438030) can0 3FF#0100010000000100
(1754539441.536151) can0 1FF#AA01010001000200
(1754539441.536153) can0 2FF#0200020001000200
(1754539441.538083) can0 3FF#0100010000000100
(1754539441.636153) can0 1FF#9501010002000300
(1754539441.636155) can0 2FF#0100010001000200
(1754539441.637996) can0 3FF#0200010000000200
(1754539441.736170) can0 1FF#AA01010001000200
(1754539441.736171) can0 2FF#0200020001000200
(1754539441.738088) can0 3FF#0100010000000200
(1754539441.836185) can0 1FF#2D02020001000100
(1754539441.836186) can0 2FF#0300030000000100
(1754539441.838114) can0 3FF#0100000000000100
(1754539441.936184) can0 1FF#6C02010001000200
(1754539441.936186) can0 2FF#0100020001000200
(1754539441.938094) can0 3FF#0200010000000200
(1754539442.036102) can0 1FF#C702010002000200
(1754539442.036104) can0 2FF#0100020001000200
(1754539442.038043) can0 3FF#0100010000000200
(1754539442.136090) can0 1FF#5402020001000200
(1754539442.136092) can0 2FF#0200020001000200
(1754539442.138017) can0 3FF#0100010000000100
(1754539442.236110) can0 1FF#4702010002000300
(1754539442.236111) can0 2FF#0100010002000200
(1754539442.238018) can0 3FF#0200010000000200
(1754539442.336245) can0 1FF#A401010002000200
(1754539442.336248) can0 2FF#0200020001000200
(1754539442.338025) can0 3FF#0100010000000100
(1754539442.436111) can0 1FF#8901020001000100
(1754539442.436113) can0 2FF#0200030000000200
(1754539442.438051) can0 3FF#0100000000000100
(1754539442.536116) can0 1FF#B001010001000200
(1754539442.536118) can0 2FF#0200020001000100
(1754539442.538048) can0 3FF#0100010000000100
(1754539442.636114) can0 1FF#5902010002000200
(1754539442.636115) can0 2FF#0200020001000200
(1754539442.638020) can0 3FF#0200010000000200
(1754539442.736077) can0 1FF#A802010001000200
(1754539442.736079) can0 2FF#0100010002000200
(1754539442.738030) can0 3FF#0100020000000200
(1754539442.835957) can0 1FF#8C02010001000200
(1754539442.835958) can0 2FF#0200020001000200
(1754539442.837999) can0 3FF#0100010000000200
(1754539442.936091) can0 1FF#3502010001000300
(1754539442.936093) can0 2FF#0200020001000200
(1754539442.938001) can0 3FF#0100010000000100
(1754539443.036222) can0 1FF#C301010001000200
(1754539443.036224) can0 2FF#0200020001000100
(1754539443.038032) can0 3FF#0100010000000100
(1754539443.136091) can0 1FF#8A01010002000200
(1754539443.136093) can0 2FF#0100010001000200
(1754539443.138006) can0 3FF#0200010000000200
(1754539443.236104) can0 1FF#D001010002000200
(1754539443.236107) can0 2FF#0200020001000200
(1754539443.238036) can0 3FF#0100010000000200
(1754539443.336132) can0 1FF#1302010001000200
(1754539443.336133) can0 2FF#0200020001000200
(1754539443.338037) can0 3FF#0200010000000200
(1754539443.436080) can0 1FF#9E02010002000200
(1754539443.436082) can0 2FF#0200020001000200
(1754539443.437981) can0 3FF#0200010000000100
(1754539443.536135) can0 1FF#C402010002000300
(1754539443.536137) can0 2FF#0200010001000200
(1754539443.538060) can0 3FF#0100010000000100
(1754539443.636120) can0 1FF#4602020002000100
(1754539443.636122) can0 2FF#0200020001000200
(1754539443.638056) can0 3FF#0100010000000100
(1754539443.736131) can0 1FF#CA01010002000300
(1754539443.736133) can0 2FF#0100010002000300
(1754539443.738043) can0 3FF#0200020000000300
(1754539443.836139) can0 1FF#7901010002000300
(1754539443.836141) can0 2FF#0100010001000200
(1754539443.838111) can0 3FF#0100010000000200
(1754539443.936087) can0 1FF#BD01020001000100
(1754539443.936089) can0 2FF#0200020001000300
(1754539443.938027) can0 3FF#0100010000000100
(1754539444.036088) can0 1FF#1E02010001000200
(1754539444.036089) can0 2FF#0200020001000200
(1754539444.038015) can0 3FF#0100010000000100
(1754539444.136087) can0 1FF#6502010001000200
(1754539444.136089) can0 2FF#0200020001000200
(1754539444.138031) can0 3FF#0100010000000100
(1754539444.236114) can0 1FF#D202010001000100
(1754539444.236116) can0 2FF#0200030001000200
(1754539444.238041) can0 3FF#0100010000000100
(1754539444.336096) can0 1FF#AF02020001000200
(1754539444.336097) can0 2FF#0200020001000200
(1754539444.338000) can0 3FF#0100010000000100
(1754539444.436105) can0 1FF#0702010002000200
(1754539444.436106) can0 2FF#0200020001000200
(1754539444.438024) can0 3FF#0200010000000200
(1754539444.536076) can0 1FF#B201010002000200
(1754539444.536078) can0 2FF#0100020001000200
(1754539444.538007) can0 3FF#0200010000000200
(1754539444.636103) can0 1FF#7D01010002000200
(1754539444.636105) can0 2FF#0100020001000200
(1754539444.638035) can0 3FF#0100010000000200
(1754539444.736100) can0 1FF#0F02010002000200
(1754539444.736102) can0 2FF#0200020001000200
(1754539444.738005) can0 3FF#0100010000000100
(1754539444.836098) can0 1FF#5702010001000300
(1754539444.836100) can0 2FF#0200020001000200
(1754539444.838011) can0 3FF#0200010000000200
(1754539444.936068) can0 1FF#C102010001000200
(1754539444.936070) can0 2FF#0200020002000200
(1754539444.938016) can0 3FF#0100010000000100
(1754539445.036078) can0 1FF#9E02020002000200
(1754539445.036079) can0 2FF#0200020001000200
(1754539445.037987) can0 3FF#0100010000000100
(1754539445.136115) can0 1FF#FA01020001000200
(1754539445.136116) can0 2FF#0200020001000200
(1754539445.138024) can0 3FF#0200010000000200
(1754539445.236084) can0 1FF#9B01010002000300
(1754539445.236086) can0 2FF#0100010001000300
(1754539445.237946) can0 3FF#0200010000000200
(1754539445.335991) can0 1FF#8901010002000200
(1754539445.335993) can0 2FF#0200020001000200
(1754539445.337998) can0 3FF#0200010000000200
(1754539445.436120) can0 1FF#1602010002000200
(1754539445.436121) can0 2FF#0200020001000200
(1754539445.438019) can0 3FF#0100010000000100
(1754539445.536116) can0 1FF#BB02010002000300
(1754539445.536118) can0 2FF#0200020001000200
(1754539445.538038) can0 3FF#0100020000000100
(1754539445.636116) can0 1FF#C602010001000200
(1754539445.636118) can0 2FF#0200010001000200
(1754539445.638033) can0 3FF#0200010000000200
(1754539445.736121) can0 1FF#D402010002000200
(1754539445.736123) can0 2FF#0100020001000200
(1754539445.738026) can0 3FF#0100020000000200
(1754539445.836126) can0 1FF#4802010001000200
(1754539445.836128) can0 2FF#0200020001000200
(1754539445.838059) can0 3FF#0100010000000200
(1754539445.936087) can0 1FF#0502010002000200
(1754539445.936089) can0 2FF#0200020001000200
(1754539445.938015) can0 3FF#0100010000000100
(1754539446.036074) can0 1FF#7301010001000200
(1754539446.036076) can0 2FF#0200030000000100
(1754539446.038009) can0 3FF#0100010000000100
(1754539446.136066) can0 1FF#0902010002000200
(1754539446.136067) can0 2FF#0200020001000200
(1754539446.137978) can0 3FF#0200010000000200
(1754539446.236075) can0 1FF#6602010002000300
(1754539446.236078) can0 2FF#0200020001000200
(1754539446.237988) can0 3FF#0200010000000200
(1754539446.336081) can0 1FF#C602020000000100
(1754539446.336082) can0 2FF#0300030001000200
(1754539446.337986) can0 3FF#0200000000000100
(1754539446.436057) can0 1FF#9302010001000300
(1754539446.436059) can0 2FF#0200020001000200
(1754539446.437985) can0 3FF#0100010000000100
(1754539446.536076) can0 1FF#4E02010001000200
(1754539446.536077) can0 2FF#0200020001000200
(1754539446.537987) can0 3FF#0100010000000100
(1754539446.636083) can0 1FF#9101020001000200
(1754539446.636085) can0 2FF#0200020001000200
(1754539446.638018) can0 3FF#0200010000000100
(1754539446.736050) can0 1FF#9801020001000200
(1754539446.736052) can0 2FF#0100020002000300
(1754539446.737987) can0 3FF#0200010000000200
(1754539446.836064) can0 1FF#C801010002000200
(1754539446.836065) can0 2FF#0100010001000200
(1754539446.837990) can0 3FF#0200010000000200
(1754539446.936041) can0 1FF#6E02010001000100
(1754539446.936042) can0 2FF#0200020001000200
(1754539446.937990) can0 3FF#0100010000000100
(1754539447.035995) can0 1FF#7F02010001000200
(1754539447.035996) can0 2FF#0200020001000200
(1754539447.037993) can0 3FF#0100010000000100
(1754539447.136027) can0 1FF#D402020002000200
(1754539447.136028) can0 2FF#0100010002000300
(1754539447.138009) can0 3FF#0200010000000200
(1754539447.236076) can0 1FF#2202020002000200
(1754539447.236078) can0 2FF#0200010001000200
(1754539447.237976) can0 3FF#0200010000000200
(1754539447.336066) can0 1FF#E501020001000200
(1754539447.336067) can0 2FF#0200020001000200
(1754539447.337983) can0 3FF#0100010000000100
(1754539447.436094) can0 1FF#7601010002000200
(1754539447.436095) can0 2FF#0200020001000100
(1754539447.438034) can0 3FF#0100010000000100
(1754539447.536100) can0 1FF#AF01010002000300
(1754539447.536101) can0 2FF#0100010002000200
(1754539447.538014) can0 3FF#0200020000000200
(1754539447.636125) can0 1FF#0102010002000300
(1754539447.636127) can0 2FF#0100010002000200
(1754539447.638046) can0 3FF#0200010000000200
(1754539447.736094) can0 1FF#CF02010002000300
(1754539447.736096) can0 2FF#0200010002000200
(1754539447.738006) can0 3FF#0200010000000200
(1754539447.836018) can0 1FF#B202010002000300
(1754539447.836020) can0 2FF#0100020002000200
(1754539447.837987) can0 3FF#0100020000000200
(1754539447.936071) can0 1FF#A602020001000200
(1754539447.936073) can0 2FF#0200030001000200
(1754539447.937970) can0 3FF#0100010000000100
(1754539448.036035) can0 1FF#0D02010002000200
(1754539448.036037) can0 2FF#0200020001000100
(1754539448.037990) can0 3FF#0100010000000100
(1754539448.136059) can0 1FF#B701010001000200
(1754539448.136061) can0 2FF#0200020001000200
(1754539448.137957) can0 3FF#0200010000000200
(1754539448.236058) can0 1FF#7B01020001000200
(1754539448.236060) can0 2FF#0200020001000200
(1754539448.237964) can0 3FF#0100010000000200
(1754539448.336065) can0 1FF#E701020001000100
(1754539448.336067) can0 2FF#0200020001000200
(1754539448.337969) can0 3FF#0100010000000100
(1754539448.436063) can0 1FF#1302010001000200
(1754539448.436064) can0 2FF#0200020001000200
(1754539448.438006) can0 3FF#0100010000000200
(1754539448.536029) can0 1FF#B402010001000200
(1754539448.536030) can0 2FF#0200020001000200
(1754539448.537950) can0 3FF#0200010000000200
(1754539448.636065) can0 1FF#A402010002000200
(1754539448.636067) can0 2FF#0200020001000200
(1754539448.637970) can0 3FF#0100010000000100
(1754539448.736044) can0 1FF#D702010001000200
(1754539448.736045) can0 2FF#0200030001000100
(1754539448.737975) can0 3FF#0100010000000100
(1754539448.836057) can0 1FF#5802020002000200
(1754539448.836059) can0 2FF#0100010002000200
(1754539448.837982) can0 3FF#0200010000000200
(1754539448.935933) can0 1FF#B901010003000300
(1754539448.935935) can0 2FF#0100010001000200
(1754539448.937877) can0 3FF#0100020000000200
(1754539449.036000) can0 1FF#7C01010002000200
(1754539449.036002) can0 2FF#0200020001000100
(1754539449.037979) can0 3FF#0100010000000100
(1754539449.135981) can0 1FF#EE01010001000200
(1754539449.135982) can0 2FF#0200020001000200
(1754539449.137954) can0 3FF#0200010000000200
(1754539449.236027) can0 1FF#4802020001000200
(1754539449.236029) can0 2FF#0200030001000200
(1754539449.237958) can0 3FF#0100010000000100
(1754539449.336065) can0 1FF#A102010002000200
(1754539449.336067) can0 2FF#0100020001000200
(1754539449.337986) can0 3FF#0100010000000100
(1754539449.436045) can0 1FF#AE02010002000200
(1754539449.436047) can0 2FF#0200020001000200
(1754539449.437961) can0 3FF#0200010000000200
(1754539449.536082) can0 1FF#8502010002000300
(1754539449.536084) can0 2FF#0100020002000200
(1754539449.537992) can0 3FF#0100010000000100
(1754539449.636103) can0 1FF#1F02020001000100
(1754539449.636105) can0 2FF#0200020001000100
(1754539449.638040) can0 3FF#0100010000000200
(1754539449.736077) can0 1FF#A201020001000200
(1754539449.736079) can0 2FF#0200020001000200
(1754539449.737987) can0 3FF#0200010000000100
(1754539449.836108) can0 1FF#7D01010001000200
(1754539449.836109) can0 2FF#0200020002000300
(1754539449.838017) can0 3FF#0200010000000200
(1754539449.936092) can0 1FF#9201010001000200
(1754539449.936094) can0 2FF#0200020001000100
(1754539449.938026) can0 3FF#0100010000000100
(1754539450.036064) can0 1FF#3D02010002000200
(1754539450.036066) can0 2FF#0200020002000200
(1754539450.037948) can0 3FF#0200010000000200
(1754539450.136178) can0 1FF#7702010001000200
(1754539450.136180) can0 2FF#0200020001000100
(1754539450.137980) can0 3FF#0100010000000100
(1754539450.236038) can0 1FF#C602010001000200
(1754539450.236039) can0 2FF#0200020001000200
(1754539450.237940) can0 3FF#0200010000000200
(1754539450.336052) can0 1FF#9802020001000100
(1754539450.336053) can0 2FF#0200020001000200
(1754539450.337906) can0 3FF#0200010000000200
(1754539450.436051) can0 1FF#0602020001000200
(1754539450.436052) can0 2FF#0200020001000200
(1754539450.437959) can0 3FF#0200010000000200
(1754539450.536039) can0 1FF#9D01020001000200
(1754539450.536041) can0 2FF#0200020001000200
(1754539450.537946) can0 3FF#0200000000000100
(1754539450.636016) can0 1FF#8A01010002000200
(1754539450.636018) can0 2FF#0100020001000200
(1754539450.637960) can0 3FF#0100010000000200
(1754539450.736018) can0 1FF#C501010002000200
(1754539450.736020) can0 2FF#0200020001000200
(1754539450.737943) can0 3FF#0200010000000100
(1754539450.836053) can0 1FF#6D02010001000200
(1754539450.836055) can0 2FF#0300030000000100
(1754539450.837948) can0 3FF#0100010000000100
(1754539450.936016) can0 1FF#9502010001000200
(1754539450.936018) can0 2FF#0200020001000100
(1754539450.937956) can0 3FF#0100010000000100
(1754539451.036014) can0 1FF#DC02010001000200
(1754539451.036015) can0 2FF#0200020001000200
(1754539451.037969) can0 3FF#0100010000000100
(1754539451.136039) can0 1FF#0102020001000200
(1754539451.136041) can0 2FF#0200020001000200
(1754539451.137960) can0 3FF#0100010000000100
(1754539451.235979) can0 1FF#C501020001000200
(1754539451.235980) can0 2FF#0200020001000200
(1754539451.237958) can0 3FF#0100010000000200
(1754539451.336030) can0 1FF#9201010002000200
(1754539451.336032) can0 2FF#0200020001000200
(1754539451.337961) can0 3FF#0100010000000200
(1754539451.436030) can0 1FF#CC01010001000200
(1754539451.436031) can0 2FF#0200020001000200
(1754539451.437964) can0 3FF#0100010000000100
(1754539451.536037) can0 1FF#FE01010002000200
(1754539451.536038) can0 2FF#0200020001000200
(1754539451.537965) can0 3FF#0100010000000100
(1754539451.636048) can0 1FF#B502010002000200
(1754539451.636050) can0 2FF#0200020001000100
(1754539451.637973) can0 3FF#0100010000000100
(1754539451.736063) can0 1FF#BB02020002000100
(1754539451.736064) can0 2FF#0200020001000200
(1754539451.737967) can0 3FF#0200000000000100
(1754539451.836075) can0 1FF#E102010001000200
(1754539451.836076) can0 2FF#0200020001000200
(1754539451.837976) can0 3FF#0100010000000200
(1754539451.936071) can0 1FF#2A02020001000200
(1754539451.936072) can0 2FF#0200020001000200
(1754539451.937972) can0 3FF#0200010000000100
(1754539452.036070) can0 1FF#0B02010002000300
(1754539452.036072) can0 2FF#0200020001000200
(1754539452.037986) can0 3FF#0100010000000100
(1754539452.136159) can0 1FF#8801010002000200
(1754539452.136161) can0 2FF#0100010002000300
(1754539452.137986) can0 3FF#0100020000000200
(1754539452.235991) can0 1FF#AD01010002000200
(1754539452.235993) can0 2FF#0200020001000200
(1754539452.237987) can0 3FF#0100010000000200
(1754539452.336058) can0 1FF#0B02010001000200
(1754539452.336060) can0 2FF#0200030002000200
(1754539452.337984) can0 3FF#0100010000000100
(1754539452.435975) can0 1FF#8D02010001000100
(1754539452.435976) can0 2FF#0200030000000100
(1754539452.437978) can0 3FF#0100010000000100
(1754539452.535980) can0 1FF#9602010002000200
(1754539452.535981) can0 2FF#0100010002000300
(1754539452.537980) can0 3FF#0200000000000200
(1754539452.635989) can0 1FF#C202010002000300
(1754539452.635990) can0 2FF#0100010001000200
(1754539452.637998) can0 3FF#0200010000000200
(1754539452.735997) can0 1FF#ED01010002000200
(1754539452.735998) can0 2FF#0100020001000200
(1754539452.738013) can0 3FF#0200010000000200
(1754539452.836064) can0 1FF#A901020001000200
(1754539452.836065) can0 2FF#0200030001000100
(1754539452.837991) can0 3FF#0100010000000100
(1754539452.936060) can0 1FF#9E01010001000300
(1754539452.936062) can0 2FF#0200020001000100
(1754539452.937989) can0 3FF#0100010000000100
(1754539453.036171) can0 1FF#CF01000002000300
(1754539453.036172) can0 2FF#0100010002000200
(1754539453.038001) can0 3FF#0200010000000300
(1754539453.136068) can0 1FF#3602010002000200
(1754539453.136070) can0 2FF#0200020001000200
(1754539453.137995) can0 3FF#0100010000000100
(1754539453.236069) can0 1FF#C602010002000200
(1754539453.236071) can0 2FF#0200020001000200
(1754539453.237919) can0 3FF#0100010000000100
(1754539453.336070) can0 1FF#B602010002000200
(1754539453.336072) can0 2FF#0200020001000200
(1754539453.337921) can0 3FF#0200010000000100
(1754539453.436061) can0 1FF#7F02010001000200
(1754539453.436062) can0 2FF#0200020001000200
(1754539453.438023) can0 3FF#0100010000000200
(1754539453.536059) can0 1FF#FB01020001000100
(1754539453.536061) can0 2FF#0300030001000200
(1754539453.538006) can0 3FF#0100010000000100
(1754539453.636131) can0 1FF#DD01010002000300
(1754539453.636133) can0 2FF#0100010002000300
(1754539453.637925) can0 3FF#0200010000000200
(1754539453.735986) can0 1FF#9201010002000300
(1754539453.735987) can0 2FF#0100010002000300
(1754539453.737922) can0 3FF#0200010000000200
(1754539453.836064) can0 1FF#9501010002000200
(1754539453.836066) can0 2FF#0200020001000200
(1754539453.838006) can0 3FF#0100010000000100
(1754539453.936074) can0 1FF#2502010002000300
(1754539453.936075) can0 2FF#0200020001000200
(1754539453.938008) can0 3FF#0100010000000100
(1754539454.036072) can0 1FF#7802010002000200
(1754539454.036073) can0 2FF#0100010002000300
(1754539454.038012) can0 3FF#0200010000000200
(1754539454.136073) can0 1FF#B902010002000200
(1754539454.136075) can0 2FF#0200020001000200
(1754539454.138011) can0 3FF#0100010000000200
(1754539454.236080) can0 1FF#8302010002000200
(1754539454.236082) can0 2FF#0200020002000200
(1754539454.238011) can0 3FF#0100010000000200
(1754539454.335993) can0 1FF#3B02010002000300
(1754539454.335994) can0 2FF#0100010002000200
(1754539454.337908) can0 3FF#0200020000000200
(1754539454.436003) can0 1FF#BB01010002000200
(1754539454.436004) can0 2FF#0100020001000200
(1754539454.437914) can0 3FF#0200010000000100
(1754539454.536008) can0 1FF#9101010001000200
(1754539454.536009) can0 2FF#0200020001000200
(1754539454.537913) can0 3FF#0200010000000100
(1754539454.636012) can0 1FF#AE01010002000200
(1754539454.636013) can0 2FF#0100020001000200
(1754539454.637939) can0 3FF#0100010000000200
(1754539454.736094) can0 1FF#2302020001000200
(1754539454.736095) can0 2FF#0200020001000300
(1754539454.737938) can0 3FF#0200010000000200
(1754539454.836010) can0 1FF#8E02010001000200
(1754539454.836012) can0 2FF#0200020001000200
(1754539454.837924) can0 3FF#0100010000000100
(1754539454.936011) can0 1FF#D302020001000100
(1754539454.936012) can0 2FF#0300030001000200
(1754539454.937946) can0 3FF#0100000000000100
(1754539455.035978) can0 1FF#7402020001000200
(1754539455.035980) can0 2FF#0200020001000200
(1754539455.037923) can0 3FF#0100010000000100
(1754539455.136140) can0 1FF#5902020001000200
(1754539455.136141) can0 2FF#0200020001000200
(1754539455.137931) can0 3FF#0100010000000100
(1754539455.235988) can0 1FF#CA01020001000200
(1754539455.235990) can0 2FF#0200030002000300
(1754539455.237928) can0 3FF#0100010000000200
(1754539455.335952) can0 1FF#9F01010002000300
(1754539455.335954) can0 2FF#0100010002000200
(1754539455.337928) can0 3FF#0200010000000200
(1754539455.435991) can0 1FF#8901010002000200
(1754539455.435992) can0 2FF#0100020002000200
(1754539455.437901) can0 3FF#0200010000000200
(1754539455.536088) can0 1FF#F601020002000200
(1754539455.536089) can0 2FF#0200020001000200
(1754539455.537909) can0 3FF#0200010000000100
(1754539455.636006) can0 1FF#4202010002000200
(1754539455.636009) can0 2FF#0200020001000200
(1754539455.637904) can0 3FF#0100010000000200
(1754539455.736022) can0 1FF#DD02010001000200
(1754539455.736023) can0 2FF#0200020002000200
(1754539455.737979) can0 3FF#0100010000000200
(1754539455.836005) can0 1FF#BD02010002000200
(1754539455.836006) can0 2FF#0200020001000200
(1754539455.837933) can0 3FF#0100010000000200
(1754539455.935992) can0 1FF#BD02020001000200
(1754539455.935993) can0 2FF#0200020001000200
(1754539455.937907) can0 3FF#0100010000000100
(1754539456.036008) can0 1FF#1202020001000200
(1754539456.036010) can0 2FF#0200020001000200
(1754539456.037942) can0 3FF#0200010000000200
(1754539456.136021) can0 1FF#B501020002000200
(1754539456.136022) can0 2FF#0100020002000300
(1754539456.137966) can0 3FF#0200010000000200
(1754539456.236016) can0 1FF#9701010002000300
(1754539456.236017) can0 2FF#0100020001000200
(1754539456.237959) can0 3FF#0100010000000100
(1754539456.336031) can0 1FF#DE01010002000300
(1754539456.336032) can0 2FF#0100010002000300
(1754539456.337965) can0 3FF#0200010000000200
(1754539456.436011) can0 1FF#3C02010001000200
(1754539456.436013) can0 2FF#0200020001000200
(1754539456.437916) can0 3FF#0200010000000100
(1754539456.535983) can0 1FF#C702010001000200
(1754539456.535985) can0 2FF#0200020001000200
(1754539456.537895) can0 3FF#0200010000000100
(1754539456.635921) can0 1FF#B102010001000200
(1754539456.635922) can0 2FF#0200020001000200
(1754539456.637899) can0 3FF#0100010000000200
(1754539456.735913) can0 1FF#5A02030001000100
(1754539456.735915) can0 2FF#0300020001000200
(1754539456.737898) can0 3FF#0200000000000100
(1754539456.835924) can0 1FF#C901010002000200
(1754539456.835925) can0 2FF#0100020001000200
(1754539456.837891) can0 3FF#0100010000000200
(1754539456.935919) can0 1FF#9201020001000200
(1754539456.935920) can0 2FF#0200030001000200
(1754539456.937890) can0 3FF#0100000000000100
(1754539457.035955) can0 1FF#9801010002000200
(1754539457.035956) can0 2FF#0100020001000200
(1754539457.037899) can0 3FF#0100010000000200
(1754539457.135976) can0 1FF#2F02010001000200
(1754539457.135977) can0 2FF#0200020001000200
(1754539457.137903) can0 3FF#0200020000000200
(1754539457.235999) can0 1FF#8202010001000200
(1754539457.236000) can0 2FF#0200020001000200
(1754539457.237904) can0 3FF#0100010000000100
(1754539457.335975) can0 1FF#AD02010001000200
(1754539457.335977) can0 2FF#0200030001000200
(1754539457.337879) can0 3FF#0100010000000100
(1754539457.435965) can0 1FF#7E02010002000200
(1754539457.435966) can0 2FF#0200020001000200
(1754539457.437900) can0 3FF#0100010000000200
(1754539457.536094) can0 1FF#FE01010002000200
(1754539457.536095) can0 2FF#0200020001000200
(1754539457.537898) can0 3FF#0100010000000100
(1754539457.635972) can0 1FF#9D01020001000200
(1754539457.635973) can0 2FF#0200020001000300
(1754539457.637888) can0 3FF#0200010000000200
(1754539457.735927) can0 1FF#8E01010002000200
(1754539457.735929) can0 2FF#0200020001000200
(1754539457.737894) can0 3FF#0100010000000100
(1754539457.835965) can0 1FF#B601010002000200
(1754539457.835966) can0 2FF#0200020001000200
(1754539457.837870) can0 3FF#0200010000000200
(1754539457.935978) can0 1FF#6102010001000200
(1754539457.935979) can0 2FF#0200020001000200
(1754539457.937887) can0 3FF#0100010000000100
(1754539458.035967) can0 1FF#BC02010002000300
(1754539458.035968) can0 2FF#0100020001000200
(1754539458.037897) can0 3FF#0100020000000100
(1754539458.136018) can0 1FF#8902010002000300
(1754539458.136020) can0 2FF#0100010002000200
(1754539458.137925) can0 3FF#0200020000000200
(1754539458.236013) can0 1FF#5902020002000300
(1754539458.236015) can0 2FF#0100010002000200
(1754539458.237957) can0 3FF#0200010000000200
(1754539458.336003) can0 1FF#D701020001000200
(1754539458.336005) can0 2FF#0200020001000200
(1754539458.337929) can0 3FF#0200010000000100
(1754539458.436014) can0 1FF#BA01010002000300
(1754539458.436015) can0 2FF#0200010001000200
(1754539458.437903) can0 3FF#0100020000000200
(1754539458.535997) can0 1FF#8A01010001000200
(1754539458.535998) can0 2FF#0200020001000200
(1754539458.537878) can0 3FF#0200010000000100
(1754539458.635977) can0 1FF#EA01010001000200
(1754539458.635979) can0 2FF#0200020001000200
(1754539458.637884) can0 3FF#0100010000000100
(1754539458.735979) can0 1FF#4F02010001000200
(1754539458.735980) can0 2FF#0200020001000200
(1754539458.737897) can0 3FF#0200010000000200
(1754539458.836054) can0 1FF#C602010001000200
(1754539458.836056) can0 2FF#0200020001000200
(1754539458.837861) can0 3FF#0100020000000100
(1754539458.935970) can0 1FF#BA02010001000200
(1754539458.935971) can0 2FF#0200020001000200
(1754539458.937891) can0 3FF#0200010000000200
(1754539459.035979) can0 1FF#4B02020001000200
(1754539459.035980) can0 2FF#0200020001000200
(1754539459.037900) can0 3FF#0100010000000200
(1754539459.135977) can0 1FF#8301020001000200
(1754539459.135978) can0 2FF#0200020002000300
(1754539459.137895) can0 3FF#0200000000000300
(1754539459.235917) can0 1FF#F701020001000200
(1754539459.235919) can0 2FF#0200020001000200
(1754539459.237861) can0 3FF#0200010000000200
(1754539459.336110) can0 1FF#1002010002000200
(1754539459.336112) can0 2FF#0200020001000200
(1754539459.337902) can0 3FF#0100010000000200
(1754539459.435954) can0 1FF#8802010002000200
(1754539459.435955) can0 2FF#0200020002000300
(1754539459.437896) can0 3FF#0200010000000200
(1754539459.535965) can0 1FF#A702010002000200
(1754539459.535966) can0 2FF#0100010002000200
(1754539459.537871) can0 3FF#0200010000000200
(1754539459.636077) can0 1FF#BD02010002000300
(1754539459.636078) can0 2FF#0100010002000200
(1754539459.637879) can0 3FF#0200010000000200
(1754539459.735966) can0 1FF#5402010002000300
(1754539459.735967) can0 2FF#0200020001000200
(1754539459.737873) can0 3FF#0100020000000200
(1754539459.835878) can0 1FF#E201020001000200
(1754539459.835879) can0 2FF#0200020001000200
(1754539459.837859) can0 3FF#0100010000000100
(1754539459.935936) can0 1FF#7501020001000200
(1754539459.935937) can0 2FF#0200020001000200
(1754539459.937842) can0 3FF#0200000000000200
(1754539460.035961) can0 1FF#D501010001000200
(1754539460.035962) can0 2FF#0200020001000100
(1754539460.037903) can0 3FF#0100010000000100
(1754539460.136207) can0 1FF#3702010001000200
(1754539460.136209) can0 2FF#0200020001000300
(1754539460.137910) can0 3FF#0200010000000200
(1754539460.235980) can0 1FF#A802010002000200
(1754539460.235981) can0 2FF#0200020001000100
(1754539460.237951) can0 3FF#0100010000000100
(1754539460.335974) can0 1FF#9A02020001000200
(1754539460.335975) can0 2FF#0200020001000200
(1754539460.337876) can0 3FF#0200010000000100
(1754539460.435930) can0 1FF#6902020001000200
(1754539460.435931) can0 2FF#0200020001000200
(1754539460.438107) can0 3FF#0100010000000100
(1754539460.535972) can0 1FF#9F01010002000200
(1754539460.535974) can0 2FF#0200020001000200
(1754539460.537892) can0 3FF#0200010000000200
(1754539460.635948) can0 1FF#9101010001000200
(1754539460.635950) can0 2FF#0300030001000100
(1754539460.637872) can0 3FF#0100010000000100
(1754539460.735942) can0 1FF#F901010002000200
(1754539460.735944) can0 2FF#0200020001000200
(1754539460.737870) can0 3FF#0200010000000200
(1754539460.835890) can0 1FF#4A02010002000200
(1754539460.835891) can0 2FF#0200020001000200
(1754539460.837871) can0 3FF#0200010000000200
(1754539460.935963) can0 1FF#A102010002000300
(1754539460.935965) can0 2FF#0100010002000200
(1754539460.937868) can0 3FF#0200010000000200
(1754539461.036051) can0 1FF#EF02020001000200
(1754539461.036053) can0 2FF#0300020001000200
(1754539461.037869) can0 3FF#0100010000000100
(1754539461.136050) can0 1FF#3002010002000200
(1754539461.136052) can0 2FF#0100020002000200
(1754539461.137880) can0 3FF#0100010000000200
(1754539461.235944) can0 1FF#EE01010001000200
(1754539461.235946) can0 2FF#0300030000000100
(1754539461.237888) can0 3FF#0000010000000000
(1754539461.336048) can0 1FF#8D01020001000200
(1754539461.336051) can0 2FF#0200020001000200
(1754539461.337857) can0 3FF#0200000000000200
(1754539461.435883) can0 1FF#CC01010001000200
(1754539461.435884) can0 2FF#0200020001000200
(1754539461.437845) can0 3FF#0100010000000100
(1754539461.535944) can0 1FF#5602010002000300
(1754539461.535945) can0 2FF#0200020001000200
(1754539461.537849) can0 3FF#0100010000000200
(1754539461.635963) can0 1FF#E002000002000300
(1754539461.635964) can0 2FF#0200020001000100
(1754539461.637879) can0 3FF#0100010000000100
(1754539461.735912) can0 1FF#7902010001000200
(1754539461.735913) can0 2FF#0200020001000200
(1754539461.737822) can0 3FF#0100010000000100
(1754539461.835946) can0 1FF#3C02010002000300
(1754539461.835948) can0 2FF#0200020001000200
(1754539461.837855) can0 3FF#0100020000000100
(1754539461.935948) can0 1FF#B801010002000300
(1754539461.935949) can0 2FF#0100010002000200
(1754539461.937857) can0 3FF#0100020000000200
(1754539462.035939) can0 1FF#A201010002000300
(1754539462.035941) can0 2FF#0200010001000200
(1754539462.037866) can0 3FF#0200010000000200
(1754539462.135970) can0 1FF#F201010002000200
(1754539462.135973) can0 2FF#0200020001000100
(1754539462.137918) can0 3FF#0100010000000100
(1754539462.236066) can0 1FF#5D02010001000200
(1754539462.236067) can0 2FF#0200020001000200
(1754539462.237900) can0 3FF#0100010000000100
(1754539462.335985) can0 1FF#8002010002000200
(1754539462.335987) can0 2FF#0200020001000200
(1754539462.337893) can0 3FF#0200010000000200
(1754539462.435921) can0 1FF#DF02020001000200
(1754539462.435922) can0 2FF#0200020001000200
(1754539462.437914) can0 3FF#0100010000000200
(1754539462.535938) can0 1FF#5702020002000200
(1754539462.535940) can0 2FF#0100020001000200
(1754539462.537862) can0 3FF#0100010000000100
(1754539462.635932) can0 1FF#C501010002000200
(1754539462.635934) can0 2FF#0200020001000200
(1754539462.637853) can0 3FF#0200010000000200
(1754539462.735941) can0 1FF#8001010002000200
(1754539462.735943) can0 2FF#0200020001000200
(1754539462.737871) can0 3FF#0100010000000200
(1754539462.835940) can0 1FF#AE01010001000200
(1754539462.835941) can0 2FF#0200020001000200
(1754539462.837853) can0 3FF#0100010000000100
(1754539462.935940) can0 1FF#1902010001000200
(1754539462.935941) can0 2FF#0200020001000200
(1754539462.937856) can0 3FF#0100010000000200
(1754539463.035953) can0 1FF#B102010002000200
(1754539463.035955) can0 2FF#0200020001000200
(1754539463.037859) can0 3FF#0100010000000200
(1754539463.135858) can0 1FF#A802010002000200
(1754539463.135859) can0 2FF#0200030000000100
(1754539463.137855) can0 3FF#0100010000000100
(1754539463.235924) can0 1FF#A802020001000200
(1754539463.235926) can0 2FF#0200020002000200
(1754539463.237839) can0 3FF#0200010000000100
(1754539463.336038) can0 1FF#0902010002000200
(1754539463.336040) can0 2FF#0200020001000300
(1754539463.337867) can0 3FF#0100010000000100
(1754539463.435870) can0 1FF#9101010002000200
(1754539463.435871) can0 2FF#0200020001000100
(1754539463.437862) can0 3FF#0100010000000100
(1754539463.535926) can0 1FF#9701010002000300
(1754539463.535927) can0 2FF#0100010001000200
(1754539463.537832) can0 3FF#0100010000000100
(1754539463.636044) can0 1FF#5002010002000200
(1754539463.636047) can0 2FF#0200020001000200
(1754539463.637844) can0 3FF#0100010000000200
(1754539463.736115) can0 1FF#AA02010001000200
(1754539463.736117) can0 2FF#0200030001000100
(1754539463.737846) can0 3FF#0200010000000100
(1754539463.836064) can0 1FF#9F02010001000300
(1754539463.836066) can0 2FF#0300020001000100
(1754539463.837842) can0 3FF#0100010000000100
(1754539463.935934) can0 1FF#6502020001000200
(1754539463.935936) can0 2FF#0200020001000200
(1754539463.937868) can0 3FF#0100010000000200
(1754539464.036009) can0 1FF#E501010002000300
(1754539464.036011) can0 2FF#0100010002000200
(1754539464.037846) can0 3FF#0200010000000200
(1754539464.135971) can0 1FF#7301010001000200
(1754539464.135973) can0 2FF#0200020001000200
(1754539464.137873) can0 3FF#0100010000000100
(1754539464.236086) can0 1FF#D801010002000200
(1754539464.236088) can0 2FF#0200020001000200
(1754539464.237877) can0 3FF#0200010000000200
(1754539464.335991) can0 1FF#2002020001000200
(1754539464.335992) can0 2FF#0200020002000300
(1754539464.337930) can0 3FF#0200010000000200
(1754539464.435969) can0 1FF#B702010002000200
(1754539464.435971) can0 2FF#0200020002000200
(1754539464.437873) can0 3FF#0200010000000200
(1754539464.535900) can0 1FF#7C02010002000300
(1754539464.535901) can0 2FF#0100020002000300
(1754539464.537854) can0 3FF#0200010000000200
(1754539464.635916) can0 1FF#4C02020001000200
(1754539464.635918) can0 2FF#0200020001000200
(1754539464.637827) can0 3FF#0100010000000100
(1754539464.735916) can0 1FF#9C01010001000200
(1754539464.735918) can0 2FF#0200020001000200
(1754539464.737829) can0 3FF#0100010000000100
(1754539464.836025) can0 1FF#8B01010001000200
(1754539464.836027) can0 2FF#0200020001000200
(1754539464.837844) can0 3FF#0100010000000100
(1754539464.936095) can0 1FF#E801010002000200
(1754539464.936096) can0 2FF#0200020001000200
(1754539464.937841) can0 3FF#0200010000000100
(1754539465.035862) can0 1FF#6802020001000200
(1754539465.035864) can0 2FF#0200020001000200
(1754539465.037833) can0 3FF#0200010000000200
(1754539465.136019) can0 1FF#A002010002000300
(1754539465.136022) can0 2FF#0100020001000200
(1754539465.137842) can0 3FF#0200010000000200
(1754539465.235905) can0 1FF#C002020001000200
(1754539465.235907) can0 2FF#0200020001000200
(1754539465.237841) can0 3FF#0100010000000200
(1754539465.335910) can0 1FF#5B02010001000200
(1754539465.335911) can0 2FF#0200020001000200
(1754539465.337815) can0 3FF#0100010000000100
(1754539465.435906) can0 1FF#E101020001000200
(1754539465.435908) can0 2FF#0200020001000200
(1754539465.437813) can0 3FF#0200010000000100
(1754539465.536034) can0 1FF#9701010002000300
(1754539465.536036) can0 2FF#0100020001000200
(1754539465.537829) can0 3FF#0200020000000200
(1754539465.635926) can0 1FF#0402010001000200
(1754539465.635927) can0 2FF#0200020001000200
(1754539465.637815) can0 3FF#0200010000000100
(1754539465.735843) can0 1FF#9202010001000200
(1754539465.735844) can0 2FF#0200020001000100
(1754539465.737840) can0 3FF#0100010000000100
(1754539465.835919) can0 1FF#CB02020001000200
(1754539465.835921) can0 2FF#0200020001000200
(1754539465.837818) can0 3FF#0100010000000100
(1754539465.935904) can0 1FF#7C02010002000200
(1754539465.935906) can0 2FF#0100020001000200
(1754539465.937851) can0 3FF#0100010000000200
(1754539466.035897) can0 1FF#D401010002000300
(1754539466.035899) can0 2FF#0100010002000300
(1754539466.037860) can0 3FF#0200010000000200
(1754539466.135954) can0 1FF#8D01010002000300
(1754539466.135955) can0 2FF#0200020001000200
(1754539466.137858) can0 3FF#0200010000000200
(1754539466.236072) can0 1FF#EA01010002000300
(1754539466.236074) can0 2FF#0100010001000300
(1754539466.237892) can0 3FF#0100020000000200
(1754539466.335934) can0 1FF#6902010002000300
(1754539466.335935) can0 2FF#0200010001000200
(1754539466.337858) can0 3FF#0200010000000200
(1754539466.435910) can0 1FF#B402010001000200
(1754539466.435911) can0 2FF#0200020001000200
(1754539466.437831) can0 3FF#0100010000000100
(1754539466.535938) can0 1FF#5502010001000200
(1754539466.535939) can0 2FF#0200020001000100
(1754539466.537895) can0 3FF#0100010000000100
(1754539466.635907) can0 1FF#6902020001000200
(1754539466.635908) can0 2FF#0200020001000200
(1754539466.637815) can0 3FF#0100010000000100
(1754539466.735912) can0 1FF#E901010002000200
(1754539466.735914) can0 2FF#0100010002000200
(1754539466.737810) can0 3FF#0200010000000200
(1754539466.835909) can0 1FF#7501020001000200
(1754539466.835911) can0 2FF#0200020001000200
(1754539466.837818) can0 3FF#0200010000000200
(1754539466.935902) can0 1FF#7901010001000200
(1754539466.935904) can0 2FF#0200020001000200
(1754539466.937833) can0 3FF#0200010000000200
(1754539467.035913) can0 1FF#F701010002000200
(1754539467.035915) can0 2FF#0100020001000200
(1754539467.037839) can0 3FF#0100010000000200
(1754539467.135879) can0 1FF#7102010002000300
(1754539467.135881) can0 2FF#0100010001000200
(1754539467.137794) can0 3FF#0100020000000200
(1754539467.235880) can0 1FF#B502010001000200
(1754539467.235881) can0 2FF#0200020001000200
(1754539467.237797) can0 3FF#0100010000000100
(1754539467.335889) can0 1FF#9302010002000300
(1754539467.335891) can0 2FF#0100020001000100
(1754539467.337800) can0 3FF#0100020000000200
(1754539467.435877) can0 1FF#3902020002000300
(1754539467.435879) can0 2FF#0200020001000200
(1754539467.437811) can0 3FF#0200010000000100
(1754539467.535884) can0 1FF#F001010002000300
(1754539467.535885) can0 2FF#0100010001000200
(1754539467.537822) can0 3FF#0100010000000200
(1754539467.635891) can0 1FF#8401010002000200
(1754539467.635892) can0 2FF#0100020002000200
(1754539467.637816) can0 3FF#0200010000000200
(1754539467.735826) can0 1FF#C001010001000300
(1754539467.735828) can0 2FF#0100010002000300
(1754539467.737822) can0 3FF#0200010000000300
(1754539467.835902) can0 1FF#1402010001000200
(1754539467.835903) can0 2FF#0200010001000300
(1754539467.837809) can0 3FF#0200010000000200
(1754539467.935866) can0 1FF#9502010002000200
(1754539467.935867) can0 2FF#0200020001000200
(1754539467.937808) can0 3FF#0100010000000200
(1754539468.035899) can0 1FF#AA02000002000300
(1754539468.035901) can0 2FF#0100010001000200
(1754539468.037812) can0 3FF#0100020000000100
(1754539468.135854) can0 1FF#DC02010002000300
(1754539468.135855) can0 2FF#0100010001000300
(1754539468.137823) can0 3FF#0200010000000200
(1754539468.235886) can0 1FF#E701010002000200
(1754539468.235887) can0 2FF#0100020002000200
(1754539468.237820) can0 3FF#0100020000000200
(1754539468.335924) can0 1FF#A001010002000300
(1754539468.335926) can0 2FF#0100010001000200
(1754539468.337838) can0 3FF#0100010000000200
(1754539468.435914) can0 1FF#A301010002000200
(1754539468.435916) can0 2FF#0100010002000300
(1754539468.437840) can0 3FF#0200010000000200
(1754539468.535937) can0 1FF#3102010002000200
(1754539468.535939) can0 2FF#0200020001000200
(1754539468.537870) can0 3FF#0100010000000100
(1754539468.635909) can0 1FF#8702010001000200
(1754539468.635910) can0 2FF#0200020001000200
(1754539468.637819) can0 3FF#0200010000000100
(1754539468.735919) can0 1FF#F302010002000300
(1754539468.735921) can0 2FF#0100010002000200
(1754539468.737827) can0 3FF#0200020000000200
(1754539468.835894) can0 1FF#9E02010001000300
(1754539468.835896) can0 2FF#0200020001000200
(1754539468.837809) can0 3FF#0100010000000100
(1754539468.935859) can0 1FF#5B02010002000200
(1754539468.935861) can0 2FF#0200020001000200
(1754539468.937773) can0 3FF#0100020000000100
(1754539469.035923) can0 1FF#BE01010002000200
(1754539469.035924) can0 2FF#0200020001000200
(1754539469.037803) can0 3FF#0100010000000200
(1754539469.136029) can0 1FF#8E01010001000200
(1754539469.136031) can0 2FF#0200020001000200
(1754539469.137782) can0 3FF#0100010000000100
(1754539469.235852) can0 1FF#A801010002000200
(1754539469.235854) can0 2FF#0200020001000200
(1754539469.237801) can0 3FF#0200010000000100
(1754539469.335854) can0 1FF#B902010001000200
(1754539469.335855) can0 2FF#0200020001000200
(1754539469.337812) can0 3FF#0100010000000200
(1754539469.435905) can0 1FF#AC02010001000200
(1754539469.435907) can0 2FF#0200030001000100
(1754539469.437810) can0 3FF#0100010000000100
(1754539469.535883) can0 1FF#8E02010001000200
(1754539469.535885) can0 2FF#0200020001000200
(1754539469.537787) can0 3FF#0100010000000100
(1754539469.635876) can0 1FF#1702010001000200
(1754539469.635877) can0 2FF#0200020001000100
(1754539469.637820) can0 3FF#0100010000000100
(1754539469.735850) can0 1FF#C401020001000200
(1754539469.735852) can0 2FF#0200020001000200
(1754539469.737792) can0 3FF#0200010000000200
(1754539469.835856) can0 1FF#9901010002000300
(1754539469.835858) can0 2FF#0100010001000200
(1754539469.837795) can0 3FF#0200010000000200
(1754539469.935877) can0 1FF#3002010002000300
(1754539469.935880) can0 2FF#0200020001000200
(1754539469.937796) can0 3FF#0100010000000100
(1754539470.035881) can0 1FF#5002020001000100
(1754539470.035882) can0 2FF#0300030001000200
(1754539470.037819) can0 3FF#0100000000000100
(1754539470.135797) can0 1FF#E902010002000200
(1754539470.135799) can0 2FF#0200010002000200
(1754539470.137820) can0 3FF#0100010000000200
(1754539470.235872) can0 1FF#6A02010002000200
(1754539470.235875) can0 2FF#0200020001000200
(1754539470.237775) can0 3FF#0200010000000100
(1754539470.335860) can0 1FF#0C02020001000200
(1754539470.335862) can0 2FF#0100020002000300
(1754539470.337796) can0 3FF#0200010000000200
(1754539470.435863) can0 1FF#A001010002000200
(1754539470.435865) can0 2FF#0200020001000200
(1754539470.437801) can0 3FF#0100010000000200
(1754539470.535920) can0 1FF#8B01020001000200
(1754539470.535921) can0 2FF#0300030001000200
(1754539470.537829) can0 3FF#0100010000000100
(1754539470.635893) can0 1FF#DE01010002000200
(1754539470.635894) can0 2FF#0200020001000200
(1754539470.637807) can0 3FF#0200010000000200
(1754539470.735967) can0 1FF#9B02010002000300
(1754539470.735968) can0 2FF#0200020001000200
(1754539470.737817) can0 3FF#0100020000000200
(1754539470.835884) can0 1FF#8C02020001000200
(1754539470.835886) can0 2FF#0200020001000200
(1754539470.837810) can0 3FF#0100010000000100
(1754539470.935903) can0 1FF#B202010002000200
(1754539470.935905) can0 2FF#0100010002000300
(1754539470.937860) can0 3FF#0200010000000200
(1754539471.035843) can0 1FF#1A02010001000200
(1754539471.035845) can0 2FF#0300030001000100
(1754539471.037797) can0 3FF#0100010000000100
(1754539471.136021) can0 1FF#C201010001000200
(1754539471.136022) can0 2FF#0200030000000100
(1754539471.137798) can0 3FF#0100010000000100
(1754539471.235857) can0 1FF#7701020001000200
(1754539471.235859) can0 2FF#0200030001000200
(1754539471.237775) can0 3FF#0200000000000200
(1754539471.335851) can0 1FF#E701010002000300
(1754539471.335853) can0 2FF#0200030000000100
(1754539471.337802) can0 3FF#0100010000000000
(1754539471.435860) can0 1FF#5502020001000200
(1754539471.435863) can0 2FF#0100010002000300
(1754539471.437798) can0 3FF#0200000000000300
(1754539471.535858) can0 1FF#E602010001000200
(1754539471.535860) can0 2FF#0300020001000200
(1754539471.537766) can0 3FF#0200010000000100
(1754539471.635867) can0 1FF#A702010002000200
(1754539471.635869) can0 2FF#0100010002000200
(1754539471.637793) can0 3FF#0100010000000200
(1754539471.735857) can0 1FF#0F02010001000200
(1754539471.735859) can0 2FF#0100020002000300
(1754539471.737793) can0 3FF#0100010000000100
(1754539471.835863) can0 1FF#9101010002000200
(1754539471.835864) can0 2FF#0200020001000100
(1754539471.837788) can0 3FF#0100020000000100
(1754539471.935849) can0 1FF#8901010002000200
(1754539471.935851) can0 2FF#0200020001000100
(1754539471.937780) can0 3FF#0100020000000100
(1754539472.035835) can0 1FF#E901010002000200
(1754539472.035837) can0 2FF#0200020001000200
(1754539472.037753) can0 3FF#0100010000000100
(1754539472.135786) can0 1FF#9602010002000200
(1754539472.135787) can0 2FF#0200020001000100
(1754539472.137787) can0 3FF#0100010000000100
(1754539472.235860) can0 1FF#BE02010002000300
(1754539472.235861) can0 2FF#0100010001000300
(1754539472.237777) can0 3FF#0100020000000200
(1754539472.335841) can0 1FF#CA02020001000200
(1754539472.335843) can0 2FF#0200020001000100
(1754539472.337755) can0 3FF#0200010000000100
(1754539472.435873) can0 1FF#4E02020001000200
(1754539472.435875) can0 2FF#0100010002000300
(1754539472.437764) can0 3FF#0200010000000200
(1754539472.535858) can0 1FF#BD01020001000200
(1754539472.535859) can0 2FF#0100020001000200
(1754539472.537758) can0 3FF#0100010000000100
(1754539472.635819) can0 1FF#9B01010002000200
(1754539472.635821) can0 2FF#0100020001000100
(1754539472.637778) can0 3FF#0100010000000200
(1754539472.735888) can0 1FF#8C01010002000200
(1754539472.735889) can0 2FF#0200020001000100
(1754539472.737821) can0 3FF#0100010000000100
(1754539472.835911) can0 1FF#EB01020001000100
(1754539472.835913) can0 2FF#0200020001000200
(1754539472.837837) can0 3FF#0100010000000200
(1754539472.935994) can0 1FF#9502010001000200
(1754539472.935996) can0 2FF#0200020001000100
(1754539472.937826) can0 3FF#0100010000000100
(1754539473.035917) can0 1FF#A902000002000300
(1754539473.035919) can0 2FF#0200020001000100
(1754539473.037821) can0 3FF#0100020000000100
(1754539473.136076) can0 1FF#9F02020002000200
(1754539473.136078) can0 2FF#0200010002000200
(1754539473.137831) can0 3FF#0200010000000200
(1754539473.235914) can0 1FF#3E02020001000200
(1754539473.235915) can0 2FF#0200020001000100
(1754539473.237807) can0 3FF#0100010000000100
(1754539473.335734) can0 1FF#7501010002000300
(1754539473.335735) can0 2FF#0100020001000100
(1754539473.337771) can0 3FF#0200010000000100
(1754539473.435969) can0 1FF#8E01020001000200
(1754539473.435971) can0 2FF#0200020001000200
(1754539473.437782) can0 3FF#0200010000000100
(1754539473.535837) can0 1FF#1C02010002000300
(1754539473.535838) can0 2FF#0200010001000200
(1754539473.537784) can0 3FF#0100010000000200
(1754539473.635840) can0 1FF#A002010003000200
(1754539473.635841) can0 2FF#0100010002000300
(1754539473.637751) can0 3FF#0200010000000200
(1754539473.735823) can0 1FF#AE02010002000200
(1754539473.735825) can0 2FF#0200020001000200
(1754539473.737752) can0 3FF#0100010000000100
(1754539473.835973) can0 1FF#9102020001000200
(1754539473.835975) can0 2FF#0200020001000200
(1754539473.837766) can0 3FF#0200010000000200
(1754539473.935932) can0 1FF#DD01020002000200
(1754539473.935934) can0 2FF#0200020001000200
(1754539473.937764) can0 3FF#0100010000000100
(1754539474.036049) can0 1FF#AD01020002000300
(1754539474.036051) can0 2FF#0100010002000300
(1754539474.037765) can0 3FF#0200010000000200
(1754539474.135845) can0 1FF#8301020001000200
(1754539474.135846) can0 2FF#0200020001000200
(1754539474.137764) can0 3FF#0200010000000200
(1754539474.235824) can0 1FF#CE01010002000300
(1754539474.235826) can0 2FF#0100010002000200
(1754539474.237760) can0 3FF#0200010000000200
(1754539474.335811) can0 1FF#4F02010002000200
(1754539474.335812) can0 2FF#0200020001000200
(1754539474.337744) can0 3FF#0100010000000100
(1754539474.435830) can0 1FF#DE02020001000200
(1754539474.435832) can0 2FF#0200020001000300
(1754539474.437768) can0 3FF#0200010000000200
(1754539474.535837) can0 1FF#2F03010001000300
(1754539474.535839) can0 2FF#0200020001000200
(1754539474.537744) can0 3FF#0100010000000100
(1754539474.635926) can0 1FF#5205010001000300
(1754539474.635929) can0 2FF#0200020001000100
(1754539474.637750) can0 3FF#0100020000000100
(1754539474.735811) can0 1FF#1709010002000300
(1754539474.735813) can0 2FF#0100020001000200
(1754539474.737741) can0 3FF#0200020000000200
(1754539474.835841) can0 1FF#520C020001000200
(1754539474.835843) can0 2FF#0200020001000200
(1754539474.837748) can0 3FF#0200010000000200
(1754539474.935868) can0 1FF#5B0D020001000200
(1754539474.935870) can0 2FF#0200020001000100
(1754539474.937801) can0 3FF#0100010000000100
(1754539475.036013) can0 1FF#A90C020002000200
(1754539475.036015) can0 2FF#0100010002000200
(1754539475.037783) can0 3FF#0300010000000200
(1754539475.135988) can0 1FF#0D0D010002000200
(1754539475.135989) can0 2FF#0200020001000200
(1754539475.137782) can0 3FF#0100010000000100
(1754539475.235890) can0 1FF#CA0C010002000200
(1754539475.235892) can0 2FF#0100010001000200
(1754539475.237807) can0 3FF#0200010000000200
(1754539475.335841) can0 1FF#600D010001000200
(1754539475.335843) can0 2FF#0200030001000100
(1754539475.337758) can0 3FF#0100010000000100
(1754539475.435826) can0 1FF#660D010002000200
(1754539475.435828) can0 2FF#0100020002000200
(1754539475.437759) can0 3FF#0200010000000200
(1754539475.535825) can0 1FF#A60D020001000200
(1754539475.535826) can0 2FF#0200020001000200
(1754539475.537726) can0 3FF#0200010000000200
(1754539475.635827) can0 1FF#B80C020002000200
(1754539475.635829) can0 2FF#0100020001000200
(1754539475.637755) can0 3FF#0100010000000200
(1754539475.735825) can0 1FF#280D020001000200
(1754539475.735826) can0 2FF#0200020001000200
(1754539475.737741) can0 3FF#0100010000000100
(1754539475.835921) can0 1FF#930C020002000200
(1754539475.835923) can0 2FF#0100020002000200
(1754539475.837742) can0 3FF#0100010000000200
(1754539475.935675) can0 1FF#3D0D010001000200
(1754539475.935677) can0 2FF#0200020001000100
(1754539475.937741) can0 3FF#0100020000000100
(1754539476.035696) can0 1FF#130D010001000300
(1754539476.035698) can0 2FF#0200010001000200
(1754539476.037738) can0 3FF#0200010000000200
(1754539476.135803) can0 1FF#F70D010002000200
(1754539476.135805) can0 2FF#0200020001000200
(1754539476.137723) can0 3FF#0200010000000200
(1754539476.235789) can0 1FF#2F0D010003000300
(1754539476.235791) can0 2FF#0200020001000200
(1754539476.237715) can0 3FF#0200010000000100
(1754539476.335802) can0 1FF#B00D020001000200
(1754539476.335803) can0 2FF#0200020001000300
(1754539476.337753) can0 3FF#0100010000000200
(1754539476.435814) can0 1FF#970C020002000200
(1754539476.435816) can0 2FF#0200020001000100
(1754539476.437751) can0 3FF#0100010000000100
(1754539476.535792) can0 1FF#4E0D020001000200
(1754539476.535793) can0 2FF#0200020001000200
(1754539476.537720) can0 3FF#0200010000000200
(1754539476.635755) can0 1FF#B50C010002000200
(1754539476.635756) can0 2FF#0200020001000200
(1754539476.637728) can0 3FF#0200010000000200
(1754539476.735807) can0 1FF#300D010001000200
(1754539476.735808) can0 2FF#0200020001000200
(1754539476.737720) can0 3FF#0200010000000100
(1754539476.835776) can0 1FF#5B0D010002000300
(1754539476.835778) can0 2FF#0200020001000200
(1754539476.837731) can0 3FF#0100010000000200
(1754539476.935781) can0 1FF#080E010001000200
(1754539476.935783) can0 2FF#0200020001000100
(1754539476.937775) can0 3FF#0100010000000100
(1754539477.035855) can0 1FF#070D010002000200
(1754539477.035857) can0 2FF#0300030000000100
(1754539477.037789) can0 3FF#0100010000000100
(1754539477.135834) can0 1FF#430D020002000200
(1754539477.135835) can0 2FF#0200020001000200
(1754539477.137755) can0 3FF#0100010000000100
(1754539477.235848) can0 1FF#9C0C010002000300
(1754539477.235849) can0 2FF#0100010002000200
(1754539477.237764) can0 3FF#0200010000000200
(1754539477.335861) can0 1FF#F90C020001000200
(1754539477.335863) can0 2FF#0200020001000200
(1754539477.337761) can0 3FF#0200010000000100
(1754539477.435922) can0 1FF#7A0C010002000300
(1754539477.435923) can0 2FF#0100010002000200
(1754539477.437739) can0 3FF#0200020000000200
(1754539477.535781) can0 1FF#BD0D010002000300
(1754539477.535783) can0 2FF#0200020001000200
(1754539477.537719) can0 3FF#0100010000000200
(1754539477.635788) can0 1FF#240D010002000200
(1754539477.635790) can0 2FF#0100020001000200
(1754539477.637719) can0 3FF#0200010000000200
(1754539477.735926) can0 1FF#DB0D020002000200
(1754539477.735928) can0 2FF#0200020001000200
(1754539477.737721) can0 3FF#0100010000000100
(1754539477.835809) can0 1FF#020D010001000200
(1754539477.835810) can0 2FF#0200020001000200
(1754539477.837719) can0 3FF#0100010000000100
(1754539477.935815) can0 1FF#2F0D020002000200
(1754539477.935817) can0 2FF#0200020001000200
(1754539477.937720) can0 3FF#0100010000000100
(1754539478.035786) can0 1FF#5C0C010002000200
(1754539478.035788) can0 2FF#0100020001000100
(1754539478.037722) can0 3FF#0100010000000100
(1754539478.135816) can0 1FF#0A0D010002000300
(1754539478.135817) can0 2FF#0100020001000200
(1754539478.137725) can0 3FF#0200010000000200
(1754539478.235780) can0 1FF#140D010001000200
(1754539478.235781) can0 2FF#0200020001000200
(1754539478.237732) can0 3FF#0100010000000100
(1754539478.335781) can0 1FF#BC0D010001000200
(1754539478.335783) can0 2FF#0200030001000200
(1754539478.337731) can0 3FF#0100000000000100
(1754539478.435803) can0 1FF#370D020001000200
(1754539478.435805) can0 2FF#0200020001000200
(1754539478.437708) can0 3FF#0100010000000100
(1754539478.535800) can0 1FF#6D0D020001000200
(1754539478.535802) can0 2FF#0200020002000300
(1754539478.537708) can0 3FF#0200010000000200
(1754539478.635803) can0 1FF#EE0C020001000200
(1754539478.635805) can0 2FF#0300030001000200
(1754539478.637734) can0 3FF#0100000000000100
(1754539478.735773) can0 1FF#030D020002000200
(1754539478.735774) can0 2FF#0200020001000200
(1754539478.737645) can0 3FF#0100020000000100
(1754539478.835785) can0 1FF#BB0C010001000300
(1754539478.835787) can0 2FF#0200020001000200
(1754539478.837686) can0 3FF#0200010000000200
(1754539478.935788) can0 1FF#D90C010002000200
(1754539478.935789) can0 2FF#0200020002000200
(1754539478.937710) can0 3FF#0100010000000200
(1754539479.035778) can0 1FF#4F0D010001000200
(1754539479.035779) can0 2FF#0200020001000100
(1754539479.037710) can0 3FF#0100010000000100
(1754539479.135932) can0 1FF#600D020001000200
(1754539479.135933) can0 2FF#0200020001000200
(1754539479.137749) can0 3FF#0100010000000200
(1754539479.235806) can0 1FF#BB0D010002000200
(1754539479.235808) can0 2FF#0200020001000200
(1754539479.237745) can0 3FF#0200010000000200
(1754539479.335842) can0 1FF#420D010001000200
(1754539479.335844) can0 2FF#0200020001000200
(1754539479.337739) can0 3FF#0100010000000100
(1754539479.435833) can0 1FF#4D0D010002000200
(1754539479.435835) can0 2FF#0100010002000200
(1754539479.437758) can0 3FF#0200020000000200
(1754539479.535843) can0 1FF#FA0C020001000200
(1754539479.535844) can0 2FF#0200020001000200
(1754539479.537778) can0 3FF#0100010000000100
(1754539479.635795) can0 1FF#E30C010001000200
(1754539479.635797) can0 2FF#0200020001000200
(1754539479.637695) can0 3FF#0100010000000200
(1754539479.735798) can0 1FF#B60C020001000200
(1754539479.735799) can0 2FF#0100020001000300
(1754539479.737695) can0 3FF#0200010000000200
(1754539479.835789) can0 1FF#950D020002000200
(1754539479.835790) can0 2FF#0200020001000200
(1754539479.837730) can0 3FF#0100010000000200
(1754539479.935761) can0 1FF#A90D010002000200
(1754539479.935762) can0 2FF#0200020001000200
(1754539479.937703) can0 3FF#0200010000000200
(1754539480.035748) can0 1FF#990D020002000200
(1754539480.035749) can0 2FF#0200020001000200
(1754539480.037671) can0 3FF#0100020000000200
(1754539480.135708) can0 1FF#DE0C020001000200
(1754539480.135709) can0 2FF#0200010002000200
(1754539480.137681) can0 3FF#0200010000000200
(1754539480.235769) can0 1FF#4A0D010001000200
(1754539480.235771) can0 2FF#0200020001000200
(1754539480.237708) can0 3FF#0100010000000100
(1754539480.335764) can0 1FF#C60C020001000100
(1754539480.335766) can0 2FF#0200020001000200
(1754539480.337710) can0 3FF#0200010000000200
(1754539480.435762) can0 1FF#F00C010002000300
(1754539480.435764) can0 2FF#0200020001000200
(1754539480.437688) can0 3FF#0200010000000100
(1754539480.535790) can0 1FF#060D020001000200
(1754539480.535792) can0 2FF#0200020001000200
(1754539480.537733) can0 3FF#0200010000000200
(1754539480.635782) can0 1FF#F00D010002000200
(1754539480.635784) can0 2FF#0100010002000300
(1754539480.637688) can0 3FF#0300010000000300
(1754539480.735764) can0 1FF#7B0D020001000200
(1754539480.735765) can0 2FF#0200020002000200
(1754539480.737705) can0 3FF#0100010000000100
(1754539480.835756) can0 1FF#610D010002000300
(1754539480.835758) can0 2FF#0200020001000200
(1754539480.837667) can0 3FF#0100010000000200
(1754539480.935759) can0 1FF#7C0C010002000300
(1754539480.935761) can0 2FF#0100020001000200
(1754539480.937700) can0 3FF#0200010000000200
(1754539481.035782) can0 1FF#000D010002000300
(1754539481.035783) can0 2FF#0200020001000200
(1754539481.037669) can0 3FF#0100020000000100
(1754539481.135767) can0 1FF#B30C010002000300
(1754539481.135769) can0 2FF#0200020001000200
(1754539481.137690) can0 3FF#0100010000000100
(1754539481.235772) can0 1FF#7F0D020001000200
(1754539481.235774) can0 2FF#0200020001000100
(1754539481.237696) can0 3FF#0100010000000100
(1754539481.335776) can0 1FF#3C0D020002000200
(1754539481.335777) can0 2FF#0200020001000200
(1754539481.337702) can0 3FF#0100010000000100
(1754539481.435818) can0 1FF#B30D010002000200
(1754539481.435820) can0 2FF#0200020002000200
(1754539481.437727) can0 3FF#0100010000000200
(1754539481.535821) can0 1FF#CF0C020001000200
(1754539481.535822) can0 2FF#0200030000000100
(1754539481.537739) can0 3FF#0100010000000100
(1754539481.635830) can0 1FF#340D020002000300
(1754539481.635832) can0 2FF#0100010001000200
(1754539481.637757) can0 3FF#0200010000000200
(1754539481.735800) can0 1FF#7B0C010002000200
(1754539481.735801) can0 2FF#0200020001000100
(1754539481.737731) can0 3FF#0100010000000100
(1754539481.835824) can0 1FF#120D010001000200
(1754539481.835825) can0 2FF#0200020001000200
(1754539481.837735) can0 3FF#0100010000000200
(1754539481.935776) can0 1FF#B20C010002000200
(1754539481.935778) can0 2FF#0100020002000200
(1754539481.937714) can0 3FF#0200010000000200
(1754539482.035781) can0 1FF#AA0D020002000200
(1754539482.035782) can0 2FF#0200020001000100
(1754539482.037751) can0 3FF#0200010000000200
(1754539482.135759) can0 1FF#580D010001000200
(1754539482.135761) can0 2FF#0300030001000100
(1754539482.137688) can0 3FF#0100010000000100
(1754539482.235736) can0 1FF#BD0D020002000200
(1754539482.235738) can0 2FF#0200020001000200
(1754539482.237664) can0 3FF#0100010000000100
(1754539482.335736) can0 1FF#C70C020001000300
(1754539482.335737) can0 2FF#0200020001000200
(1754539482.337670) can0 3FF#0100010000000200
(1754539482.435722) can0 1FF#450D010002000300
(1754539482.435724) can0 2FF#0200020001000200
(1754539482.437641) can0 3FF#0200010000000200
(1754539482.535757) can0 1FF#830C010001000200
(1754539482.535759) can0 2FF#0200020001000200
(1754539482.537701) can0 3FF#0200010000000200
(1754539482.635744) can0 1FF#030D020001000200
(1754539482.635746) can0 2FF#0200020001000200
(1754539482.637676) can0 3FF#0200010000000100
(1754539482.735702) can0 1FF#280D010002000200
(1754539482.735704) can0 2FF#0200020001000200
(1754539482.737681) can0 3FF#0100010000000200
(1754539482.835723) can0 1FF#E30D020002000300
(1754539482.835724) can0 2FF#0200020001000200
(1754539482.837650) can0 3FF#0100020000000100
(1754539482.935738) can0 1FF#420D020002000300
(1754539482.935740) can0 2FF#0200020001000300
(1754539482.937577) can0 3FF#0200010000000200
(1754539483.035739) can0 1FF#A10D010002000200
(1754539483.035741) can0 2FF#0200020001000200
(1754539483.037651) can0 3FF#0100010000000100
(1754539483.135787) can0 1FF#AA0C020002000200
(1754539483.135788) can0 2FF#0100010002000300
(1754539483.137686) can0 3FF#0200010000000200
(1754539483.235771) can0 1FF#2E0D010002000200
(1754539483.235773) can0 2FF#0200020001000200
(1754539483.237688) can0 3FF#0100010000000100
(1754539483.335755) can0 1FF#D90C010002000200
(1754539483.335757) can0 2FF#0200020001000200
(1754539483.337659) can0 3FF#0200010000000200
(1754539483.435743) can0 1FF#550D010001000200
(1754539483.435744) can0 2FF#0200020001000100
(1754539483.437668) can0 3FF#0100010000000100
(1754539483.535734) can0 1FF#710D010001000200
(1754539483.535736) can0 2FF#0200020001000200
(1754539483.537657) can0 3FF#0100010000000100
(1754539483.635758) can0 1FF#BD0D020002000300
(1754539483.635760) can0 2FF#0100010002000200
(1754539483.637684) can0 3FF#0200010000000200
(1754539483.735775) can0 1FF#510D020001000200
(1754539483.735776) can0 2FF#0200020001000200
(1754539483.737713) can0 3FF#0200010000000100
(1754539483.835777) can0 1FF#5B0D010002000200
(1754539483.835778) can0 2FF#0200020000000200
(1754539483.837717) can0 3FF#0100010000000100
(1754539483.935727) can0 1FF#D10C010001000200
(1754539483.935728) can0 2FF#0200020001000200
(1754539483.937710) can0 3FF#0200010000000200
(1754539484.035905) can0 1FF#DD0C010001000200
(1754539484.035906) can0 2FF#0300030000000100
(1754539484.037729) can0 3FF#0100010000000100
(1754539484.135745) can0 1FF#C20C010001000200
(1754539484.135747) can0 2FF#0200020001000200
(1754539484.137680) can0 3FF#0100010000000100
(1754539484.235853) can0 1FF#DA0D010003000200
(1754539484.235854) can0 2FF#0100010001000200
(1754539484.237674) can0 3FF#0200010000000200
(1754539484.335742) can0 1FF#7D0D010002000300
(1754539484.335744) can0 2FF#0100010001000200
(1754539484.337654) can0 3FF#0100020000000200
(1754539484.435751) can0 1FF#140D010002000200
(1754539484.435752) can0 2FF#0200020001000200
(1754539484.437656) can0 3FF#0100020000000100
(1754539484.535745) can0 1FF#DF0C020002000300
(1754539484.535747) can0 2FF#0100010002000300
(1754539484.537686) can0 3FF#0200020000000300
(1754539484.635742) can0 1FF#E20C020001000200
(1754539484.635744) can0 2FF#0200020001000200
(1754539484.637694) can0 3FF#0100010000000200
(1754539484.735756) can0 1FF#CE0C010002000300
(1754539484.735757) can0 2FF#0100010002000200
(1754539484.737669) can0 3FF#0200020000000200
(1754539484.835725) can0 1FF#2C0D010002000200
(1754539484.835727) can0 2FF#0100010002000300
(1754539484.837692) can0 3FF#0200010000000300
(1754539484.935715) can0 1FF#270D020001000200
(1754539484.935717) can0 2FF#0200020001000200
(1754539484.937664) can0 3FF#0200010000000200
(1754539485.035718) can0 1FF#A30D020001000200
(1754539485.035720) can0 2FF#0100010002000300
(1754539485.037662) can0 3FF#0200010000000200
(1754539485.135716) can0 1FF#1A0D010001000300
(1754539485.135718) can0 2FF#0200020002000200
(1754539485.137650) can0 3FF#0100020000000200
(1754539485.235730) can0 1FF#9E0C020002000200
(1754539485.235731) can0 2FF#0100020001000200
(1754539485.237665) can0 3FF#0100010000000100
(1754539485.335669) can0 1FF#C10C010001000200
(1754539485.335670) can0 2FF#0200020001000200
(1754539485.337636) can0 3FF#0100010000000100
(1754539485.435735) can0 1FF#F60C020001000100
(1754539485.435736) can0 2FF#0300030001000200
(1754539485.437664) can0 3FF#0100010000000100
(1754539485.535737) can0 1FF#090D010001000200
(1754539485.535739) can0 2FF#0200020001000200
(1754539485.537654) can0 3FF#0100010000000100
(1754539485.635726) can0 1FF#5F0D010001000300
(1754539485.635727) can0 2FF#0200020001000200
(1754539485.637652) can0 3FF#0100010000000100
(1754539485.735753) can0 1FF#8A0D020002000200
(1754539485.735754) can0 2FF#0200020001000200
(1754539485.737675) can0 3FF#0100010000000100
(1754539485.835769) can0 1FF#4C0D010001000200
(1754539485.835770) can0 2FF#0200020001000100
(1754539485.837701) can0 3FF#0100010000000100
(1754539485.935726) can0 1FF#2F0D020002000200
(1754539485.935727) can0 2FF#0200020001000200
(1754539485.937704) can0 3FF#0200010000000200
(1754539486.035803) can0 1FF#B50C020001000200
(1754539486.035804) can0 2FF#0200020001000100
(1754539486.037729) can0 3FF#0100010000000200
(1754539486.135750) can0 1FF#D00C020001000200
(1754539486.135751) can0 2FF#0200020001000200
(1754539486.137679) can0 3FF#0200010000000200
(1754539486.235778) can0 1FF#D20C020002000200
(1754539486.235780) can0 2FF#0200020001000200
(1754539486.237702) can0 3FF#0200010000000200
(1754539486.335718) can0 1FF#9F0D010002000200
(1754539486.335720) can0 2FF#0200020001000200
(1754539486.337660) can0 3FF#0100010000000100
(1754539486.435689) can0 1FF#BD0D020001000200
(1754539486.435690) can0 2FF#0200030001000200
(1754539486.437634) can0 3FF#0100010000000100
(1754539486.535725) can0 1FF#4E0D020001000200
(1754539486.535727) can0 2FF#0200020001000200
(1754539486.537659) can0 3FF#0100010000000200
(1754539486.635723) can0 1FF#BD0C020002000200
(1754539486.635724) can0 2FF#0200020001000200
(1754539486.637665) can0 3FF#0100010000000200
(1754539486.735719) can0 1FF#310D010002000300
(1754539486.735720) can0 2FF#0100010001000200
(1754539486.737635) can0 3FF#0200010000000200
(1754539486.835713) can0 1FF#EF0C010002000200
(1754539486.835714) can0 2FF#0200020001000200
(1754539486.837639) can0 3FF#0200010000000200
(1754539486.935704) can0 1FF#370D010002000200
(1754539486.935706) can0 2FF#0100010001000300
(1754539486.937654) can0 3FF#0100010000000200
(1754539487.035710) can0 1FF#580D010001000200
(1754539487.035712) can0 2FF#0200020001000200
(1754539487.037674) can0 3FF#0100010000000100
(1754539487.135695) can0 1FF#D80D020001000200
